!Agilent Technologies,E8363B,MY43030303,A.07.50.37
!Agilent E8363B: A.07.50.37
!Date: Thursday, February 02, 2012 01:57:40
!Correction: S11(Off) 
!S21(Off) 
!S12(Off) 
!S22(Off) 
!S2P File: Measurements: S11, S21, S12, S22:
# Hz S  dB   R 50
90000000000 -1.897235e+001 3.067094e+001 -2.000000e+002 4.500000e+001 -2.000000e+002 4.500000e+001 -2.000000e+002 4.500000e+001
90031250000 -2.056777e+001 -1.928511e-001 -2.000000e+002 4.500000e+001 -2.000000e+002 4.500000e+001 -2.000000e+002 4.500000e+001
90062500000 -2.204047e+001 -3.474620e+001 -2.000000e+002 4.500000e+001 -2.000000e+002 4.500000e+001 -2.000000e+002 4.500000e+001
90093750000 -2.293623e+001 -7.181083e+001 -2.000000e+002 4.500000e+001 -2.000000e+002 4.500000e+001 -2.000000e+002 4.500000e+001
90125000000 -2.301245e+001 -1.089032e+002 -2.000000e+002 4.500000e+001 -2.000000e+002 4.500000e+001 -2.000000e+002 4.500000e+001
90156250000 -2.258526e+001 -1.435962e+002 -2.000000e+002 4.500000e+001 -2.000000e+002 4.500000e+001 -2.000000e+002 4.500000e+001
90187500000 -2.192407e+001 -1.747436e+002 -2.000000e+002 4.500000e+001 -2.000000e+002 4.500000e+001 -2.000000e+002 4.500000e+001
90218750000 -2.133381e+001 1.565355e+002 -2.000000e+002 4.500000e+001 -2.000000e+002 4.500000e+001 -2.000000e+002 4.500000e+001
90250000000 -2.094874e+001 1.296414e+002 -2.000000e+002 4.500000e+001 -2.000000e+002 4.500000e+001 -2.000000e+002 4.500000e+001
90281250000 -2.086805e+001 1.038438e+002 -2.000000e+002 4.500000e+001 -2.000000e+002 4.500000e+001 -2.000000e+002 4.500000e+001
90312500000 -2.107663e+001 7.824557e+001 -2.000000e+002 4.500000e+001 -2.000000e+002 4.500000e+001 -2.000000e+002 4.500000e+001
90343750000 -2.158248e+001 5.223410e+001 -2.000000e+002 4.500000e+001 -2.000000e+002 4.500000e+001 -2.000000e+002 4.500000e+001
90375000000 -2.227743e+001 2.473158e+001 -2.000000e+002 4.500000e+001 -2.000000e+002 4.500000e+001 -2.000000e+002 4.500000e+001
90406250000 -2.309922e+001 -4.799037e+000 -2.000000e+002 4.500000e+001 -2.000000e+002 4.500000e+001 -2.000000e+002 4.500000e+001
90437500000 -2.379638e+001 -3.728455e+001 -2.000000e+002 4.500000e+001 -2.000000e+002 4.500000e+001 -2.000000e+002 4.500000e+001
90468750000 -2.412198e+001 -7.226791e+001 -2.000000e+002 4.500000e+001 -2.000000e+002 4.500000e+001 -2.000000e+002 4.500000e+001
90500000000 -2.385983e+001 -1.085947e+002 -2.000000e+002 4.500000e+001 -2.000000e+002 4.500000e+001 -2.000000e+002 4.500000e+001
90531250000 -2.301438e+001 -1.436263e+002 -2.000000e+002 4.500000e+001 -2.000000e+002 4.500000e+001 -2.000000e+002 4.500000e+001
90562500000 -2.184040e+001 -1.762352e+002 -2.000000e+002 4.500000e+001 -2.000000e+002 4.500000e+001 -2.000000e+002 4.500000e+001
90593750000 -2.067557e+001 1.536187e+002 -2.000000e+002 4.500000e+001 -2.000000e+002 4.500000e+001 -2.000000e+002 4.500000e+001
90625000000 -1.964082e+001 1.252823e+002 -2.000000e+002 4.500000e+001 -2.000000e+002 4.500000e+001 -2.000000e+002 4.500000e+001
90656250000 -1.875025e+001 9.820866e+001 -2.000000e+002 4.500000e+001 -2.000000e+002 4.500000e+001 -2.000000e+002 4.500000e+001
90687500000 -1.805355e+001 7.203206e+001 -2.000000e+002 4.500000e+001 -2.000000e+002 4.500000e+001 -2.000000e+002 4.500000e+001
90718750000 -1.754315e+001 4.641616e+001 -2.000000e+002 4.500000e+001 -2.000000e+002 4.500000e+001 -2.000000e+002 4.500000e+001
90750000000 -1.715728e+001 2.127300e+001 -2.000000e+002 4.500000e+001 -2.000000e+002 4.500000e+001 -2.000000e+002 4.500000e+001
90781250000 -1.688592e+001 -3.728471e+000 -2.000000e+002 4.500000e+001 -2.000000e+002 4.500000e+001 -2.000000e+002 4.500000e+001
90812500000 -1.670033e+001 -2.849546e+001 -2.000000e+002 4.500000e+001 -2.000000e+002 4.500000e+001 -2.000000e+002 4.500000e+001
90843750000 -1.659185e+001 -5.339556e+001 -2.000000e+002 4.500000e+001 -2.000000e+002 4.500000e+001 -2.000000e+002 4.500000e+001
90875000000 -1.650935e+001 -7.843356e+001 -2.000000e+002 4.500000e+001 -2.000000e+002 4.500000e+001 -2.000000e+002 4.500000e+001
90906250000 -1.642217e+001 -1.041236e+002 -2.000000e+002 4.500000e+001 -2.000000e+002 4.500000e+001 -2.000000e+002 4.500000e+001
90937500000 -1.634250e+001 -1.301749e+002 -2.000000e+002 4.500000e+001 -2.000000e+002 4.500000e+001 -2.000000e+002 4.500000e+001
90968750000 -1.623558e+001 -1.572552e+002 -2.000000e+002 4.500000e+001 -2.000000e+002 4.500000e+001 -2.000000e+002 4.500000e+001
91000000000 -1.614637e+001 1.753864e+002 -2.000000e+002 4.500000e+001 -2.000000e+002 4.500000e+001 -2.000000e+002 4.500000e+001
91031250000 -1.599479e+001 1.477508e+002 -2.000000e+002 4.500000e+001 -2.000000e+002 4.500000e+001 -2.000000e+002 4.500000e+001
91062500000 -1.584435e+001 1.203531e+002 -2.000000e+002 4.500000e+001 -2.000000e+002 4.500000e+001 -2.000000e+002 4.500000e+001
91093750000 -1.568738e+001 9.331197e+001 -2.000000e+002 4.500000e+001 -2.000000e+002 4.500000e+001 -2.000000e+002 4.500000e+001
91125000000 -1.557049e+001 6.682970e+001 -2.000000e+002 4.500000e+001 -2.000000e+002 4.500000e+001 -2.000000e+002 4.500000e+001
91156250000 -1.546587e+001 4.114878e+001 -2.000000e+002 4.500000e+001 -2.000000e+002 4.500000e+001 -2.000000e+002 4.500000e+001
91187500000 -1.540408e+001 1.607509e+001 -2.000000e+002 4.500000e+001 -2.000000e+002 4.500000e+001 -2.000000e+002 4.500000e+001
91218750000 -1.535117e+001 -8.468844e+000 -2.000000e+002 4.500000e+001 -2.000000e+002 4.500000e+001 -2.000000e+002 4.500000e+001
91250000000 -1.534233e+001 -3.257745e+001 -2.000000e+002 4.500000e+001 -2.000000e+002 4.500000e+001 -2.000000e+002 4.500000e+001
91281250000 -1.539605e+001 -5.672884e+001 -2.000000e+002 4.500000e+001 -2.000000e+002 4.500000e+001 -2.000000e+002 4.500000e+001
91312500000 -1.550294e+001 -8.089290e+001 -2.000000e+002 4.500000e+001 -2.000000e+002 4.500000e+001 -2.000000e+002 4.500000e+001
91343750000 -1.566999e+001 -1.052073e+002 -2.000000e+002 4.500000e+001 -2.000000e+002 4.500000e+001 -2.000000e+002 4.500000e+001
91375000000 -1.594427e+001 -1.299209e+002 -2.000000e+002 4.500000e+001 -2.000000e+002 4.500000e+001 -2.000000e+002 4.500000e+001
91406250000 -1.631476e+001 -1.549284e+002 -2.000000e+002 4.500000e+001 -2.000000e+002 4.500000e+001 -2.000000e+002 4.500000e+001
91437500000 -1.679667e+001 1.793289e+002 -2.000000e+002 4.500000e+001 -2.000000e+002 4.500000e+001 -2.000000e+002 4.500000e+001
91468750000 -1.740954e+001 1.531136e+002 -2.000000e+002 4.500000e+001 -2.000000e+002 4.500000e+001 -2.000000e+002 4.500000e+001
91500000000 -1.807488e+001 1.260288e+002 -2.000000e+002 4.500000e+001 -2.000000e+002 4.500000e+001 -2.000000e+002 4.500000e+001
91531250000 -1.878954e+001 9.812565e+001 -2.000000e+002 4.500000e+001 -2.000000e+002 4.500000e+001 -2.000000e+002 4.500000e+001
91562500000 -1.942340e+001 6.908852e+001 -2.000000e+002 4.500000e+001 -2.000000e+002 4.500000e+001 -2.000000e+002 4.500000e+001
91593750000 -1.991569e+001 3.935933e+001 -2.000000e+002 4.500000e+001 -2.000000e+002 4.500000e+001 -2.000000e+002 4.500000e+001
91625000000 -2.023820e+001 9.600872e+000 -2.000000e+002 4.500000e+001 -2.000000e+002 4.500000e+001 -2.000000e+002 4.500000e+001
91656250000 -2.035840e+001 -2.017754e+001 -2.000000e+002 4.500000e+001 -2.000000e+002 4.500000e+001 -2.000000e+002 4.500000e+001
91687500000 -2.027147e+001 -4.920039e+001 -2.000000e+002 4.500000e+001 -2.000000e+002 4.500000e+001 -2.000000e+002 4.500000e+001
91718750000 -2.010188e+001 -7.722810e+001 -2.000000e+002 4.500000e+001 -2.000000e+002 4.500000e+001 -2.000000e+002 4.500000e+001
91750000000 -1.993372e+001 -1.042884e+002 -2.000000e+002 4.500000e+001 -2.000000e+002 4.500000e+001 -2.000000e+002 4.500000e+001
91781250000 -1.977913e+001 -1.302715e+002 -2.000000e+002 4.500000e+001 -2.000000e+002 4.500000e+001 -2.000000e+002 4.500000e+001
91812500000 -1.979428e+001 -1.555346e+002 -2.000000e+002 4.500000e+001 -2.000000e+002 4.500000e+001 -2.000000e+002 4.500000e+001
91843750000 -1.998514e+001 -1.799141e+002 -2.000000e+002 4.500000e+001 -2.000000e+002 4.500000e+001 -2.000000e+002 4.500000e+001
91875000000 -2.030985e+001 1.563112e+002 -2.000000e+002 4.500000e+001 -2.000000e+002 4.500000e+001 -2.000000e+002 4.500000e+001
91906250000 -2.092361e+001 1.330887e+002 -2.000000e+002 4.500000e+001 -2.000000e+002 4.500000e+001 -2.000000e+002 4.500000e+001
91937500000 -2.184287e+001 1.104806e+002 -2.000000e+002 4.500000e+001 -2.000000e+002 4.500000e+001 -2.000000e+002 4.500000e+001
91968750000 -2.314087e+001 8.860103e+001 -2.000000e+002 4.500000e+001 -2.000000e+002 4.500000e+001 -2.000000e+002 4.500000e+001
92000000000 -2.505398e+001 6.700861e+001 -2.000000e+002 4.500000e+001 -2.000000e+002 4.500000e+001 -2.000000e+002 4.500000e+001
92031250000 -2.808991e+001 4.561713e+001 -2.000000e+002 4.500000e+001 -2.000000e+002 4.500000e+001 -2.000000e+002 4.500000e+001
92062500000 -3.354866e+001 2.365930e+001 -2.000000e+002 4.500000e+001 -2.000000e+002 4.500000e+001 -2.000000e+002 4.500000e+001
92093750000 -5.782444e+001 -2.442491e+001 -2.000000e+002 4.500000e+001 -2.000000e+002 4.500000e+001 -2.000000e+002 4.500000e+001
92125000000 -3.404370e+001 1.668782e+002 -2.000000e+002 4.500000e+001 -2.000000e+002 4.500000e+001 -2.000000e+002 4.500000e+001
92156250000 -2.763988e+001 1.457213e+002 -2.000000e+002 4.500000e+001 -2.000000e+002 4.500000e+001 -2.000000e+002 4.500000e+001
92187500000 -2.405169e+001 1.252900e+002 -2.000000e+002 4.500000e+001 -2.000000e+002 4.500000e+001 -2.000000e+002 4.500000e+001
92218750000 -2.170453e+001 1.046769e+002 -2.000000e+002 4.500000e+001 -2.000000e+002 4.500000e+001 -2.000000e+002 4.500000e+001
92250000000 -1.997550e+001 8.424796e+001 -2.000000e+002 4.500000e+001 -2.000000e+002 4.500000e+001 -2.000000e+002 4.500000e+001
92281250000 -1.866104e+001 6.364715e+001 -2.000000e+002 4.500000e+001 -2.000000e+002 4.500000e+001 -2.000000e+002 4.500000e+001
92312500000 -1.769989e+001 4.288768e+001 -2.000000e+002 4.500000e+001 -2.000000e+002 4.500000e+001 -2.000000e+002 4.500000e+001
92343750000 -1.698436e+001 2.193435e+001 -2.000000e+002 4.500000e+001 -2.000000e+002 4.500000e+001 -2.000000e+002 4.500000e+001
92375000000 -1.650370e+001 5.429952e-001 -2.000000e+002 4.500000e+001 -2.000000e+002 4.500000e+001 -2.000000e+002 4.500000e+001
92406250000 -1.623222e+001 -2.115308e+001 -2.000000e+002 4.500000e+001 -2.000000e+002 4.500000e+001 -2.000000e+002 4.500000e+001
92437500000 -1.617014e+001 -4.357899e+001 -2.000000e+002 4.500000e+001 -2.000000e+002 4.500000e+001 -2.000000e+002 4.500000e+001
92468750000 -1.628101e+001 -6.669987e+001 -2.000000e+002 4.500000e+001 -2.000000e+002 4.500000e+001 -2.000000e+002 4.500000e+001
92500000000 -1.658381e+001 -9.063689e+001 -2.000000e+002 4.500000e+001 -2.000000e+002 4.500000e+001 -2.000000e+002 4.500000e+001
92531250000 -1.700055e+001 -1.156584e+002 -2.000000e+002 4.500000e+001 -2.000000e+002 4.500000e+001 -2.000000e+002 4.500000e+001
92562500000 -1.750151e+001 -1.418932e+002 -2.000000e+002 4.500000e+001 -2.000000e+002 4.500000e+001 -2.000000e+002 4.500000e+001
92593750000 -1.797996e+001 -1.694518e+002 -2.000000e+002 4.500000e+001 -2.000000e+002 4.500000e+001 -2.000000e+002 4.500000e+001
92625000000 -1.831898e+001 1.616781e+002 -2.000000e+002 4.500000e+001 -2.000000e+002 4.500000e+001 -2.000000e+002 4.500000e+001
92656250000 -1.838526e+001 1.321248e+002 -2.000000e+002 4.500000e+001 -2.000000e+002 4.500000e+001 -2.000000e+002 4.500000e+001
92687500000 -1.815936e+001 1.028013e+002 -2.000000e+002 4.500000e+001 -2.000000e+002 4.500000e+001 -2.000000e+002 4.500000e+001
92718750000 -1.771834e+001 7.456543e+001 -2.000000e+002 4.500000e+001 -2.000000e+002 4.500000e+001 -2.000000e+002 4.500000e+001
92750000000 -1.714725e+001 4.775253e+001 -2.000000e+002 4.500000e+001 -2.000000e+002 4.500000e+001 -2.000000e+002 4.500000e+001
92781250000 -1.655398e+001 2.218643e+001 -2.000000e+002 4.500000e+001 -2.000000e+002 4.500000e+001 -2.000000e+002 4.500000e+001
92812500000 -1.604087e+001 -2.174982e+000 -2.000000e+002 4.500000e+001 -2.000000e+002 4.500000e+001 -2.000000e+002 4.500000e+001
92843750000 -1.565640e+001 -2.562009e+001 -2.000000e+002 4.500000e+001 -2.000000e+002 4.500000e+001 -2.000000e+002 4.500000e+001
92875000000 -1.543717e+001 -4.831363e+001 -2.000000e+002 4.500000e+001 -2.000000e+002 4.500000e+001 -2.000000e+002 4.500000e+001
92906250000 -1.537554e+001 -7.059072e+001 -2.000000e+002 4.500000e+001 -2.000000e+002 4.500000e+001 -2.000000e+002 4.500000e+001
92937500000 -1.546374e+001 -9.244024e+001 -2.000000e+002 4.500000e+001 -2.000000e+002 4.500000e+001 -2.000000e+002 4.500000e+001
92968750000 -1.570037e+001 -1.138480e+002 -2.000000e+002 4.500000e+001 -2.000000e+002 4.500000e+001 -2.000000e+002 4.500000e+001
93000000000 -1.605887e+001 -1.350063e+002 -2.000000e+002 4.500000e+001 -2.000000e+002 4.500000e+001 -2.000000e+002 4.500000e+001
93031250000 -1.655616e+001 -1.560206e+002 -2.000000e+002 4.500000e+001 -2.000000e+002 4.500000e+001 -2.000000e+002 4.500000e+001
93062500000 -1.716065e+001 -1.768700e+002 -2.000000e+002 4.500000e+001 -2.000000e+002 4.500000e+001 -2.000000e+002 4.500000e+001
93093750000 -1.791823e+001 1.621996e+002 -2.000000e+002 4.500000e+001 -2.000000e+002 4.500000e+001 -2.000000e+002 4.500000e+001
93125000000 -1.881115e+001 1.408062e+002 -2.000000e+002 4.500000e+001 -2.000000e+002 4.500000e+001 -2.000000e+002 4.500000e+001
93156250000 -1.986045e+001 1.187722e+002 -2.000000e+002 4.500000e+001 -2.000000e+002 4.500000e+001 -2.000000e+002 4.500000e+001
93187500000 -2.104901e+001 9.597720e+001 -2.000000e+002 4.500000e+001 -2.000000e+002 4.500000e+001 -2.000000e+002 4.500000e+001
93218750000 -2.243429e+001 7.211347e+001 -2.000000e+002 4.500000e+001 -2.000000e+002 4.500000e+001 -2.000000e+002 4.500000e+001
93250000000 -2.385032e+001 4.664349e+001 -2.000000e+002 4.500000e+001 -2.000000e+002 4.500000e+001 -2.000000e+002 4.500000e+001
93281250000 -2.531375e+001 2.026259e+001 -2.000000e+002 4.500000e+001 -2.000000e+002 4.500000e+001 -2.000000e+002 4.500000e+001
93312500000 -2.678059e+001 -7.248341e+000 -2.000000e+002 4.500000e+001 -2.000000e+002 4.500000e+001 -2.000000e+002 4.500000e+001
93343750000 -2.812954e+001 -3.421737e+001 -2.000000e+002 4.500000e+001 -2.000000e+002 4.500000e+001 -2.000000e+002 4.500000e+001
93375000000 -2.949726e+001 -6.069901e+001 -2.000000e+002 4.500000e+001 -2.000000e+002 4.500000e+001 -2.000000e+002 4.500000e+001
93406250000 -3.114634e+001 -8.570844e+001 -2.000000e+002 4.500000e+001 -2.000000e+002 4.500000e+001 -2.000000e+002 4.500000e+001
93437500000 -3.337565e+001 -1.072180e+002 -2.000000e+002 4.500000e+001 -2.000000e+002 4.500000e+001 -2.000000e+002 4.500000e+001
93468750000 -3.699253e+001 -1.232407e+002 -2.000000e+002 4.500000e+001 -2.000000e+002 4.500000e+001 -2.000000e+002 4.500000e+001
93500000000 -4.350135e+001 -1.182884e+002 -2.000000e+002 4.500000e+001 -2.000000e+002 4.500000e+001 -2.000000e+002 4.500000e+001
93531250000 -4.220276e+001 -4.870584e+001 -2.000000e+002 4.500000e+001 -2.000000e+002 4.500000e+001 -2.000000e+002 4.500000e+001
93562500000 -3.478631e+001 -4.652995e+001 -2.000000e+002 4.500000e+001 -2.000000e+002 4.500000e+001 -2.000000e+002 4.500000e+001
93593750000 -3.018285e+001 -6.187092e+001 -2.000000e+002 4.500000e+001 -2.000000e+002 4.500000e+001 -2.000000e+002 4.500000e+001
93625000000 -2.696252e+001 -8.042341e+001 -2.000000e+002 4.500000e+001 -2.000000e+002 4.500000e+001 -2.000000e+002 4.500000e+001
93656250000 -2.444325e+001 -1.003265e+002 -2.000000e+002 4.500000e+001 -2.000000e+002 4.500000e+001 -2.000000e+002 4.500000e+001
93687500000 -2.239647e+001 -1.207107e+002 -2.000000e+002 4.500000e+001 -2.000000e+002 4.500000e+001 -2.000000e+002 4.500000e+001
93718750000 -2.070564e+001 -1.411846e+002 -2.000000e+002 4.500000e+001 -2.000000e+002 4.500000e+001 -2.000000e+002 4.500000e+001
93750000000 -1.931364e+001 -1.615844e+002 -2.000000e+002 4.500000e+001 -2.000000e+002 4.500000e+001 -2.000000e+002 4.500000e+001
93781250000 -1.814430e+001 1.778393e+002 -2.000000e+002 4.500000e+001 -2.000000e+002 4.500000e+001 -2.000000e+002 4.500000e+001
93812500000 -1.714434e+001 1.570893e+002 -2.000000e+002 4.500000e+001 -2.000000e+002 4.500000e+001 -2.000000e+002 4.500000e+001
93843750000 -1.633856e+001 1.360084e+002 -2.000000e+002 4.500000e+001 -2.000000e+002 4.500000e+001 -2.000000e+002 4.500000e+001
93875000000 -1.566158e+001 1.143596e+002 -2.000000e+002 4.500000e+001 -2.000000e+002 4.500000e+001 -2.000000e+002 4.500000e+001
93906250000 -1.511102e+001 9.213647e+001 -2.000000e+002 4.500000e+001 -2.000000e+002 4.500000e+001 -2.000000e+002 4.500000e+001
93937500000 -1.467349e+001 6.922536e+001 -2.000000e+002 4.500000e+001 -2.000000e+002 4.500000e+001 -2.000000e+002 4.500000e+001
93968750000 -1.432016e+001 4.580486e+001 -2.000000e+002 4.500000e+001 -2.000000e+002 4.500000e+001 -2.000000e+002 4.500000e+001
94000000000 -1.402154e+001 2.196775e+001 -2.000000e+002 4.500000e+001 -2.000000e+002 4.500000e+001 -2.000000e+002 4.500000e+001
94031250000 -1.378154e+001 -2.052425e+000 -2.000000e+002 4.500000e+001 -2.000000e+002 4.500000e+001 -2.000000e+002 4.500000e+001
94062500000 -1.355331e+001 -2.597522e+001 -2.000000e+002 4.500000e+001 -2.000000e+002 4.500000e+001 -2.000000e+002 4.500000e+001
94093750000 -1.335302e+001 -4.964283e+001 -2.000000e+002 4.500000e+001 -2.000000e+002 4.500000e+001 -2.000000e+002 4.500000e+001
94125000000 -1.315257e+001 -7.299500e+001 -2.000000e+002 4.500000e+001 -2.000000e+002 4.500000e+001 -2.000000e+002 4.500000e+001
94156250000 -1.295907e+001 -9.603542e+001 -2.000000e+002 4.500000e+001 -2.000000e+002 4.500000e+001 -2.000000e+002 4.500000e+001
94187500000 -1.272755e+001 -1.189066e+002 -2.000000e+002 4.500000e+001 -2.000000e+002 4.500000e+001 -2.000000e+002 4.500000e+001
94218750000 -1.248592e+001 -1.414803e+002 -2.000000e+002 4.500000e+001 -2.000000e+002 4.500000e+001 -2.000000e+002 4.500000e+001
94250000000 -1.222018e+001 -1.638687e+002 -2.000000e+002 4.500000e+001 -2.000000e+002 4.500000e+001 -2.000000e+002 4.500000e+001
94281250000 -1.196787e+001 1.738776e+002 -2.000000e+002 4.500000e+001 -2.000000e+002 4.500000e+001 -2.000000e+002 4.500000e+001
94312500000 -1.174028e+001 1.516772e+002 -2.000000e+002 4.500000e+001 -2.000000e+002 4.500000e+001 -2.000000e+002 4.500000e+001
94343750000 -1.158011e+001 1.295191e+002 -2.000000e+002 4.500000e+001 -2.000000e+002 4.500000e+001 -2.000000e+002 4.500000e+001
94375000000 -1.148766e+001 1.074215e+002 -2.000000e+002 4.500000e+001 -2.000000e+002 4.500000e+001 -2.000000e+002 4.500000e+001
94406250000 -1.147416e+001 8.556056e+001 -2.000000e+002 4.500000e+001 -2.000000e+002 4.500000e+001 -2.000000e+002 4.500000e+001
94437500000 -1.152311e+001 6.380043e+001 -2.000000e+002 4.500000e+001 -2.000000e+002 4.500000e+001 -2.000000e+002 4.500000e+001
94468750000 -1.164496e+001 4.210252e+001 -2.000000e+002 4.500000e+001 -2.000000e+002 4.500000e+001 -2.000000e+002 4.500000e+001
94500000000 -1.181042e+001 2.057871e+001 -2.000000e+002 4.500000e+001 -2.000000e+002 4.500000e+001 -2.000000e+002 4.500000e+001
94531250000 -1.198826e+001 -9.372545e-001 -2.000000e+002 4.500000e+001 -2.000000e+002 4.500000e+001 -2.000000e+002 4.500000e+001
94562500000 -1.213389e+001 -2.250031e+001 -2.000000e+002 4.500000e+001 -2.000000e+002 4.500000e+001 -2.000000e+002 4.500000e+001
94593750000 -1.225506e+001 -4.409662e+001 -2.000000e+002 4.500000e+001 -2.000000e+002 4.500000e+001 -2.000000e+002 4.500000e+001
94625000000 -1.229909e+001 -6.578996e+001 -2.000000e+002 4.500000e+001 -2.000000e+002 4.500000e+001 -2.000000e+002 4.500000e+001
94656250000 -1.226563e+001 -8.769298e+001 -2.000000e+002 4.500000e+001 -2.000000e+002 4.500000e+001 -2.000000e+002 4.500000e+001
94687500000 -1.215151e+001 -1.096537e+002 -2.000000e+002 4.500000e+001 -2.000000e+002 4.500000e+001 -2.000000e+002 4.500000e+001
94718750000 -1.195524e+001 -1.318466e+002 -2.000000e+002 4.500000e+001 -2.000000e+002 4.500000e+001 -2.000000e+002 4.500000e+001
