!Agilent Technologies,E8363B,MY43030303,A.07.50.37
!Agilent E8363B: A.07.50.37
!Date: Thursday, February 02, 2012 04:01:36
!Correction: S11(Off) 
!S21(Off) 
!S12(Off) 
!S22(Off) 
!S2P File: Measurements: S11, S21, S12, S22:
# Hz S  dB   R 50
90000000000 -3.893876e+000 1.064832e+002 -2.000000e+002 4.500000e+001 -2.000000e+002 4.500000e+001 -2.000000e+002 4.500000e+001
90031250000 -4.000109e+000 8.243278e+001 -2.000000e+002 4.500000e+001 -2.000000e+002 4.500000e+001 -2.000000e+002 4.500000e+001
90062500000 -4.244455e+000 5.787874e+001 -2.000000e+002 4.500000e+001 -2.000000e+002 4.500000e+001 -2.000000e+002 4.500000e+001
90093750000 -4.586907e+000 3.305739e+001 -2.000000e+002 4.500000e+001 -2.000000e+002 4.500000e+001 -2.000000e+002 4.500000e+001
90125000000 -4.983805e+000 8.184779e+000 -2.000000e+002 4.500000e+001 -2.000000e+002 4.500000e+001 -2.000000e+002 4.500000e+001
90156250000 -5.375217e+000 -1.661386e+001 -2.000000e+002 4.500000e+001 -2.000000e+002 4.500000e+001 -2.000000e+002 4.500000e+001
90187500000 -5.709945e+000 -4.109057e+001 -2.000000e+002 4.500000e+001 -2.000000e+002 4.500000e+001 -2.000000e+002 4.500000e+001
90218750000 -5.940615e+000 -6.527445e+001 -2.000000e+002 4.500000e+001 -2.000000e+002 4.500000e+001 -2.000000e+002 4.500000e+001
90250000000 -6.075515e+000 -8.907520e+001 -2.000000e+002 4.500000e+001 -2.000000e+002 4.500000e+001 -2.000000e+002 4.500000e+001
90281250000 -6.097005e+000 -1.125201e+002 -2.000000e+002 4.500000e+001 -2.000000e+002 4.500000e+001 -2.000000e+002 4.500000e+001
90312500000 -6.018749e+000 -1.358317e+002 -2.000000e+002 4.500000e+001 -2.000000e+002 4.500000e+001 -2.000000e+002 4.500000e+001
90343750000 -5.886064e+000 -1.592266e+002 -2.000000e+002 4.500000e+001 -2.000000e+002 4.500000e+001 -2.000000e+002 4.500000e+001
90375000000 -5.725899e+000 1.770974e+002 -2.000000e+002 4.500000e+001 -2.000000e+002 4.500000e+001 -2.000000e+002 4.500000e+001
90406250000 -5.576062e+000 1.529594e+002 -2.000000e+002 4.500000e+001 -2.000000e+002 4.500000e+001 -2.000000e+002 4.500000e+001
90437500000 -5.488929e+000 1.281777e+002 -2.000000e+002 4.500000e+001 -2.000000e+002 4.500000e+001 -2.000000e+002 4.500000e+001
90468750000 -5.499444e+000 1.029921e+002 -2.000000e+002 4.500000e+001 -2.000000e+002 4.500000e+001 -2.000000e+002 4.500000e+001
90500000000 -5.608723e+000 7.763812e+001 -2.000000e+002 4.500000e+001 -2.000000e+002 4.500000e+001 -2.000000e+002 4.500000e+001
90531250000 -5.795484e+000 5.248746e+001 -2.000000e+002 4.500000e+001 -2.000000e+002 4.500000e+001 -2.000000e+002 4.500000e+001
90562500000 -6.035174e+000 2.784556e+001 -2.000000e+002 4.500000e+001 -2.000000e+002 4.500000e+001 -2.000000e+002 4.500000e+001
90593750000 -6.276184e+000 3.746342e+000 -2.000000e+002 4.500000e+001 -2.000000e+002 4.500000e+001 -2.000000e+002 4.500000e+001
90625000000 -6.509338e+000 -1.987857e+001 -2.000000e+002 4.500000e+001 -2.000000e+002 4.500000e+001 -2.000000e+002 4.500000e+001
90656250000 -6.684694e+000 -4.335588e+001 -2.000000e+002 4.500000e+001 -2.000000e+002 4.500000e+001 -2.000000e+002 4.500000e+001
90687500000 -6.793646e+000 -6.694045e+001 -2.000000e+002 4.500000e+001 -2.000000e+002 4.500000e+001 -2.000000e+002 4.500000e+001
90718750000 -6.829495e+000 -9.084146e+001 -2.000000e+002 4.500000e+001 -2.000000e+002 4.500000e+001 -2.000000e+002 4.500000e+001
90750000000 -6.782919e+000 -1.153479e+002 -2.000000e+002 4.500000e+001 -2.000000e+002 4.500000e+001 -2.000000e+002 4.500000e+001
90781250000 -6.679380e+000 -1.406857e+002 -2.000000e+002 4.500000e+001 -2.000000e+002 4.500000e+001 -2.000000e+002 4.500000e+001
90812500000 -6.543880e+000 -1.667106e+002 -2.000000e+002 4.500000e+001 -2.000000e+002 4.500000e+001 -2.000000e+002 4.500000e+001
90843750000 -6.419075e+000 1.667077e+002 -2.000000e+002 4.500000e+001 -2.000000e+002 4.500000e+001 -2.000000e+002 4.500000e+001
90875000000 -6.352374e+000 1.397869e+002 -2.000000e+002 4.500000e+001 -2.000000e+002 4.500000e+001 -2.000000e+002 4.500000e+001
90906250000 -6.362895e+000 1.129475e+002 -2.000000e+002 4.500000e+001 -2.000000e+002 4.500000e+001 -2.000000e+002 4.500000e+001
90937500000 -6.440696e+000 8.659026e+001 -2.000000e+002 4.500000e+001 -2.000000e+002 4.500000e+001 -2.000000e+002 4.500000e+001
90968750000 -6.552326e+000 6.080627e+001 -2.000000e+002 4.500000e+001 -2.000000e+002 4.500000e+001 -2.000000e+002 4.500000e+001
91000000000 -6.673881e+000 3.574264e+001 -2.000000e+002 4.500000e+001 -2.000000e+002 4.500000e+001 -2.000000e+002 4.500000e+001
91031250000 -6.764424e+000 1.121990e+001 -2.000000e+002 4.500000e+001 -2.000000e+002 4.500000e+001 -2.000000e+002 4.500000e+001
91062500000 -6.805154e+000 -1.283179e+001 -2.000000e+002 4.500000e+001 -2.000000e+002 4.500000e+001 -2.000000e+002 4.500000e+001
91093750000 -6.782780e+000 -3.676392e+001 -2.000000e+002 4.500000e+001 -2.000000e+002 4.500000e+001 -2.000000e+002 4.500000e+001
91125000000 -6.707204e+000 -6.075864e+001 -2.000000e+002 4.500000e+001 -2.000000e+002 4.500000e+001 -2.000000e+002 4.500000e+001
91156250000 -6.585508e+000 -8.502066e+001 -2.000000e+002 4.500000e+001 -2.000000e+002 4.500000e+001 -2.000000e+002 4.500000e+001
91187500000 -6.440317e+000 -1.097291e+002 -2.000000e+002 4.500000e+001 -2.000000e+002 4.500000e+001 -2.000000e+002 4.500000e+001
91218750000 -6.322335e+000 -1.349706e+002 -2.000000e+002 4.500000e+001 -2.000000e+002 4.500000e+001 -2.000000e+002 4.500000e+001
91250000000 -6.269253e+000 -1.608095e+002 -2.000000e+002 4.500000e+001 -2.000000e+002 4.500000e+001 -2.000000e+002 4.500000e+001
91281250000 -6.292112e+000 1.729906e+002 -2.000000e+002 4.500000e+001 -2.000000e+002 4.500000e+001 -2.000000e+002 4.500000e+001
91312500000 -6.420198e+000 1.466743e+002 -2.000000e+002 4.500000e+001 -2.000000e+002 4.500000e+001 -2.000000e+002 4.500000e+001
91343750000 -6.614719e+000 1.205758e+002 -2.000000e+002 4.500000e+001 -2.000000e+002 4.500000e+001 -2.000000e+002 4.500000e+001
91375000000 -6.839972e+000 9.491986e+001 -2.000000e+002 4.500000e+001 -2.000000e+002 4.500000e+001 -2.000000e+002 4.500000e+001
91406250000 -7.026257e+000 6.980492e+001 -2.000000e+002 4.500000e+001 -2.000000e+002 4.500000e+001 -2.000000e+002 4.500000e+001
91437500000 -7.175227e+000 4.517315e+001 -2.000000e+002 4.500000e+001 -2.000000e+002 4.500000e+001 -2.000000e+002 4.500000e+001
91468750000 -7.217393e+000 2.094614e+001 -2.000000e+002 4.500000e+001 -2.000000e+002 4.500000e+001 -2.000000e+002 4.500000e+001
91500000000 -7.166474e+000 -3.007853e+000 -2.000000e+002 4.500000e+001 -2.000000e+002 4.500000e+001 -2.000000e+002 4.500000e+001
91531250000 -7.013093e+000 -2.689252e+001 -2.000000e+002 4.500000e+001 -2.000000e+002 4.500000e+001 -2.000000e+002 4.500000e+001
91562500000 -6.788514e+000 -5.087067e+001 -2.000000e+002 4.500000e+001 -2.000000e+002 4.500000e+001 -2.000000e+002 4.500000e+001
91593750000 -6.529302e+000 -7.503142e+001 -2.000000e+002 4.500000e+001 -2.000000e+002 4.500000e+001 -2.000000e+002 4.500000e+001
91625000000 -6.274673e+000 -9.945876e+001 -2.000000e+002 4.500000e+001 -2.000000e+002 4.500000e+001 -2.000000e+002 4.500000e+001
91656250000 -6.068547e+000 -1.241724e+002 -2.000000e+002 4.500000e+001 -2.000000e+002 4.500000e+001 -2.000000e+002 4.500000e+001
91687500000 -5.944715e+000 -1.491110e+002 -2.000000e+002 4.500000e+001 -2.000000e+002 4.500000e+001 -2.000000e+002 4.500000e+001
91718750000 -5.922101e+000 -1.739893e+002 -2.000000e+002 4.500000e+001 -2.000000e+002 4.500000e+001 -2.000000e+002 4.500000e+001
91750000000 -6.009979e+000 1.613394e+002 -2.000000e+002 4.500000e+001 -2.000000e+002 4.500000e+001 -2.000000e+002 4.500000e+001
91781250000 -6.176846e+000 1.372243e+002 -2.000000e+002 4.500000e+001 -2.000000e+002 4.500000e+001 -2.000000e+002 4.500000e+001
91812500000 -6.388885e+000 1.134562e+002 -2.000000e+002 4.500000e+001 -2.000000e+002 4.500000e+001 -2.000000e+002 4.500000e+001
91843750000 -6.614019e+000 9.012560e+001 -2.000000e+002 4.500000e+001 -2.000000e+002 4.500000e+001 -2.000000e+002 4.500000e+001
91875000000 -6.806809e+000 6.701393e+001 -2.000000e+002 4.500000e+001 -2.000000e+002 4.500000e+001 -2.000000e+002 4.500000e+001
91906250000 -6.959413e+000 4.386446e+001 -2.000000e+002 4.500000e+001 -2.000000e+002 4.500000e+001 -2.000000e+002 4.500000e+001
91937500000 -7.037271e+000 2.040904e+001 -2.000000e+002 4.500000e+001 -2.000000e+002 4.500000e+001 -2.000000e+002 4.500000e+001
91968750000 -7.060516e+000 -3.557498e+000 -2.000000e+002 4.500000e+001 -2.000000e+002 4.500000e+001 -2.000000e+002 4.500000e+001
92000000000 -7.018395e+000 -2.820934e+001 -2.000000e+002 4.500000e+001 -2.000000e+002 4.500000e+001 -2.000000e+002 4.500000e+001
92031250000 -6.923381e+000 -5.355849e+001 -2.000000e+002 4.500000e+001 -2.000000e+002 4.500000e+001 -2.000000e+002 4.500000e+001
92062500000 -6.800569e+000 -7.952167e+001 -2.000000e+002 4.500000e+001 -2.000000e+002 4.500000e+001 -2.000000e+002 4.500000e+001
92093750000 -6.700177e+000 -1.059154e+002 -2.000000e+002 4.500000e+001 -2.000000e+002 4.500000e+001 -2.000000e+002 4.500000e+001
92125000000 -6.611286e+000 -1.322833e+002 -2.000000e+002 4.500000e+001 -2.000000e+002 4.500000e+001 -2.000000e+002 4.500000e+001
92156250000 -6.544469e+000 -1.583178e+002 -2.000000e+002 4.500000e+001 -2.000000e+002 4.500000e+001 -2.000000e+002 4.500000e+001
92187500000 -6.507943e+000 1.764545e+002 -2.000000e+002 4.500000e+001 -2.000000e+002 4.500000e+001 -2.000000e+002 4.500000e+001
92218750000 -6.460166e+000 1.520836e+002 -2.000000e+002 4.500000e+001 -2.000000e+002 4.500000e+001 -2.000000e+002 4.500000e+001
92250000000 -6.383442e+000 1.286480e+002 -2.000000e+002 4.500000e+001 -2.000000e+002 4.500000e+001 -2.000000e+002 4.500000e+001
92281250000 -6.271955e+000 1.059839e+002 -2.000000e+002 4.500000e+001 -2.000000e+002 4.500000e+001 -2.000000e+002 4.500000e+001
92312500000 -6.106539e+000 8.392919e+001 -2.000000e+002 4.500000e+001 -2.000000e+002 4.500000e+001 -2.000000e+002 4.500000e+001
92343750000 -5.899424e+000 6.234946e+001 -2.000000e+002 4.500000e+001 -2.000000e+002 4.500000e+001 -2.000000e+002 4.500000e+001
92375000000 -5.664825e+000 4.080448e+001 -2.000000e+002 4.500000e+001 -2.000000e+002 4.500000e+001 -2.000000e+002 4.500000e+001
92406250000 -5.420398e+000 1.914967e+001 -2.000000e+002 4.500000e+001 -2.000000e+002 4.500000e+001 -2.000000e+002 4.500000e+001
92437500000 -5.194901e+000 -2.878430e+000 -2.000000e+002 4.500000e+001 -2.000000e+002 4.500000e+001 -2.000000e+002 4.500000e+001
92468750000 -5.015233e+000 -2.539535e+001 -2.000000e+002 4.500000e+001 -2.000000e+002 4.500000e+001 -2.000000e+002 4.500000e+001
92500000000 -4.928050e+000 -4.847321e+001 -2.000000e+002 4.500000e+001 -2.000000e+002 4.500000e+001 -2.000000e+002 4.500000e+001
92531250000 -4.940259e+000 -7.201048e+001 -2.000000e+002 4.500000e+001 -2.000000e+002 4.500000e+001 -2.000000e+002 4.500000e+001
92562500000 -5.080280e+000 -9.584625e+001 -2.000000e+002 4.500000e+001 -2.000000e+002 4.500000e+001 -2.000000e+002 4.500000e+001
92593750000 -5.309795e+000 -1.196384e+002 -2.000000e+002 4.500000e+001 -2.000000e+002 4.500000e+001 -2.000000e+002 4.500000e+001
92625000000 -5.593594e+000 -1.433789e+002 -2.000000e+002 4.500000e+001 -2.000000e+002 4.500000e+001 -2.000000e+002 4.500000e+001
92656250000 -5.868739e+000 -1.669280e+002 -2.000000e+002 4.500000e+001 -2.000000e+002 4.500000e+001 -2.000000e+002 4.500000e+001
92687500000 -6.096921e+000 1.697839e+002 -2.000000e+002 4.500000e+001 -2.000000e+002 4.500000e+001 -2.000000e+002 4.500000e+001
92718750000 -6.233645e+000 1.466811e+002 -2.000000e+002 4.500000e+001 -2.000000e+002 4.500000e+001 -2.000000e+002 4.500000e+001
92750000000 -6.256932e+000 1.236500e+002 -2.000000e+002 4.500000e+001 -2.000000e+002 4.500000e+001 -2.000000e+002 4.500000e+001
92781250000 -6.161491e+000 1.006227e+002 -2.000000e+002 4.500000e+001 -2.000000e+002 4.500000e+001 -2.000000e+002 4.500000e+001
92812500000 -5.947625e+000 7.748637e+001 -2.000000e+002 4.500000e+001 -2.000000e+002 4.500000e+001 -2.000000e+002 4.500000e+001
92843750000 -5.661002e+000 5.416438e+001 -2.000000e+002 4.500000e+001 -2.000000e+002 4.500000e+001 -2.000000e+002 4.500000e+001
92875000000 -5.337602e+000 3.048240e+001 -2.000000e+002 4.500000e+001 -2.000000e+002 4.500000e+001 -2.000000e+002 4.500000e+001
92906250000 -5.025866e+000 6.538990e+000 -2.000000e+002 4.500000e+001 -2.000000e+002 4.500000e+001 -2.000000e+002 4.500000e+001
92937500000 -4.772413e+000 -1.762840e+001 -2.000000e+002 4.500000e+001 -2.000000e+002 4.500000e+001 -2.000000e+002 4.500000e+001
92968750000 -4.605811e+000 -4.187464e+001 -2.000000e+002 4.500000e+001 -2.000000e+002 4.500000e+001 -2.000000e+002 4.500000e+001
93000000000 -4.542427e+000 -6.578441e+001 -2.000000e+002 4.500000e+001 -2.000000e+002 4.500000e+001 -2.000000e+002 4.500000e+001
93031250000 -4.569081e+000 -8.922714e+001 -2.000000e+002 4.500000e+001 -2.000000e+002 4.500000e+001 -2.000000e+002 4.500000e+001
93062500000 -4.660753e+000 -1.119075e+002 -2.000000e+002 4.500000e+001 -2.000000e+002 4.500000e+001 -2.000000e+002 4.500000e+001
93093750000 -4.782339e+000 -1.339472e+002 -2.000000e+002 4.500000e+001 -2.000000e+002 4.500000e+001 -2.000000e+002 4.500000e+001
93125000000 -4.906365e+000 -1.553900e+002 -2.000000e+002 4.500000e+001 -2.000000e+002 4.500000e+001 -2.000000e+002 4.500000e+001
93156250000 -4.995317e+000 -1.765512e+002 -2.000000e+002 4.500000e+001 -2.000000e+002 4.500000e+001 -2.000000e+002 4.500000e+001
93187500000 -5.036862e+000 1.623290e+002 -2.000000e+002 4.500000e+001 -2.000000e+002 4.500000e+001 -2.000000e+002 4.500000e+001
93218750000 -5.031676e+000 1.409955e+002 -2.000000e+002 4.500000e+001 -2.000000e+002 4.500000e+001 -2.000000e+002 4.500000e+001
93250000000 -4.962495e+000 1.191364e+002 -2.000000e+002 4.500000e+001 -2.000000e+002 4.500000e+001 -2.000000e+002 4.500000e+001
93281250000 -4.852150e+000 9.671839e+001 -2.000000e+002 4.500000e+001 -2.000000e+002 4.500000e+001 -2.000000e+002 4.500000e+001
93312500000 -4.726484e+000 7.362106e+001 -2.000000e+002 4.500000e+001 -2.000000e+002 4.500000e+001 -2.000000e+002 4.500000e+001
93343750000 -4.594986e+000 4.984852e+001 -2.000000e+002 4.500000e+001 -2.000000e+002 4.500000e+001 -2.000000e+002 4.500000e+001
93375000000 -4.504742e+000 2.559658e+001 -2.000000e+002 4.500000e+001 -2.000000e+002 4.500000e+001 -2.000000e+002 4.500000e+001
93406250000 -4.475703e+000 1.118458e+000 -2.000000e+002 4.500000e+001 -2.000000e+002 4.500000e+001 -2.000000e+002 4.500000e+001
93437500000 -4.532675e+000 -2.322527e+001 -2.000000e+002 4.500000e+001 -2.000000e+002 4.500000e+001 -2.000000e+002 4.500000e+001
93468750000 -4.655705e+000 -4.712394e+001 -2.000000e+002 4.500000e+001 -2.000000e+002 4.500000e+001 -2.000000e+002 4.500000e+001
93500000000 -4.829903e+000 -7.034051e+001 -2.000000e+002 4.500000e+001 -2.000000e+002 4.500000e+001 -2.000000e+002 4.500000e+001
93531250000 -5.017548e+000 -9.276974e+001 -2.000000e+002 4.500000e+001 -2.000000e+002 4.500000e+001 -2.000000e+002 4.500000e+001
93562500000 -5.180322e+000 -1.145892e+002 -2.000000e+002 4.500000e+001 -2.000000e+002 4.500000e+001 -2.000000e+002 4.500000e+001
93593750000 -5.294747e+000 -1.359017e+002 -2.000000e+002 4.500000e+001 -2.000000e+002 4.500000e+001 -2.000000e+002 4.500000e+001
93625000000 -5.341845e+000 -1.568762e+002 -2.000000e+002 4.500000e+001 -2.000000e+002 4.500000e+001 -2.000000e+002 4.500000e+001
93656250000 -5.324943e+000 -1.777451e+002 -2.000000e+002 4.500000e+001 -2.000000e+002 4.500000e+001 -2.000000e+002 4.500000e+001
93687500000 -5.243684e+000 1.612437e+002 -2.000000e+002 4.500000e+001 -2.000000e+002 4.500000e+001 -2.000000e+002 4.500000e+001
93718750000 -5.118349e+000 1.399265e+002 -2.000000e+002 4.500000e+001 -2.000000e+002 4.500000e+001 -2.000000e+002 4.500000e+001
93750000000 -4.990361e+000 1.182517e+002 -2.000000e+002 4.500000e+001 -2.000000e+002 4.500000e+001 -2.000000e+002 4.500000e+001
93781250000 -4.870036e+000 9.607747e+001 -2.000000e+002 4.500000e+001 -2.000000e+002 4.500000e+001 -2.000000e+002 4.500000e+001
93812500000 -4.808755e+000 7.342278e+001 -2.000000e+002 4.500000e+001 -2.000000e+002 4.500000e+001 -2.000000e+002 4.500000e+001
93843750000 -4.835855e+000 5.041278e+001 -2.000000e+002 4.500000e+001 -2.000000e+002 4.500000e+001 -2.000000e+002 4.500000e+001
93875000000 -4.941813e+000 2.715999e+001 -2.000000e+002 4.500000e+001 -2.000000e+002 4.500000e+001 -2.000000e+002 4.500000e+001
93906250000 -5.124149e+000 4.086477e+000 -2.000000e+002 4.500000e+001 -2.000000e+002 4.500000e+001 -2.000000e+002 4.500000e+001
93937500000 -5.355102e+000 -1.868716e+001 -2.000000e+002 4.500000e+001 -2.000000e+002 4.500000e+001 -2.000000e+002 4.500000e+001
93968750000 -5.587353e+000 -4.095208e+001 -2.000000e+002 4.500000e+001 -2.000000e+002 4.500000e+001 -2.000000e+002 4.500000e+001
94000000000 -5.783824e+000 -6.276681e+001 -2.000000e+002 4.500000e+001 -2.000000e+002 4.500000e+001 -2.000000e+002 4.500000e+001
94031250000 -5.925021e+000 -8.401525e+001 -2.000000e+002 4.500000e+001 -2.000000e+002 4.500000e+001 -2.000000e+002 4.500000e+001
94062500000 -5.989331e+000 -1.049768e+002 -2.000000e+002 4.500000e+001 -2.000000e+002 4.500000e+001 -2.000000e+002 4.500000e+001
94093750000 -5.967491e+000 -1.257591e+002 -2.000000e+002 4.500000e+001 -2.000000e+002 4.500000e+001 -2.000000e+002 4.500000e+001
94125000000 -5.870834e+000 -1.466219e+002 -2.000000e+002 4.500000e+001 -2.000000e+002 4.500000e+001 -2.000000e+002 4.500000e+001
94156250000 -5.721129e+000 -1.676907e+002 -2.000000e+002 4.500000e+001 -2.000000e+002 4.500000e+001 -2.000000e+002 4.500000e+001
94187500000 -5.534779e+000 1.709955e+002 -2.000000e+002 4.500000e+001 -2.000000e+002 4.500000e+001 -2.000000e+002 4.500000e+001
94218750000 -5.352136e+000 1.492182e+002 -2.000000e+002 4.500000e+001 -2.000000e+002 4.500000e+001 -2.000000e+002 4.500000e+001
94250000000 -5.201062e+000 1.270403e+002 -2.000000e+002 4.500000e+001 -2.000000e+002 4.500000e+001 -2.000000e+002 4.500000e+001
94281250000 -5.126783e+000 1.045746e+002 -2.000000e+002 4.500000e+001 -2.000000e+002 4.500000e+001 -2.000000e+002 4.500000e+001
94312500000 -5.155683e+000 8.195127e+001 -2.000000e+002 4.500000e+001 -2.000000e+002 4.500000e+001 -2.000000e+002 4.500000e+001
94343750000 -5.269457e+000 5.935784e+001 -2.000000e+002 4.500000e+001 -2.000000e+002 4.500000e+001 -2.000000e+002 4.500000e+001
94375000000 -5.476556e+000 3.705399e+001 -2.000000e+002 4.500000e+001 -2.000000e+002 4.500000e+001 -2.000000e+002 4.500000e+001
94406250000 -5.731433e+000 1.508383e+001 -2.000000e+002 4.500000e+001 -2.000000e+002 4.500000e+001 -2.000000e+002 4.500000e+001
94437500000 -5.992646e+000 -6.585419e+000 -2.000000e+002 4.500000e+001 -2.000000e+002 4.500000e+001 -2.000000e+002 4.500000e+001
94468750000 -6.214282e+000 -2.801037e+001 -2.000000e+002 4.500000e+001 -2.000000e+002 4.500000e+001 -2.000000e+002 4.500000e+001
94500000000 -6.372997e+000 -4.932329e+001 -2.000000e+002 4.500000e+001 -2.000000e+002 4.500000e+001 -2.000000e+002 4.500000e+001
94531250000 -6.441034e+000 -7.058148e+001 -2.000000e+002 4.500000e+001 -2.000000e+002 4.500000e+001 -2.000000e+002 4.500000e+001
94562500000 -6.425929e+000 -9.200587e+001 -2.000000e+002 4.500000e+001 -2.000000e+002 4.500000e+001 -2.000000e+002 4.500000e+001
94593750000 -6.334125e+000 -1.136387e+002 -2.000000e+002 4.500000e+001 -2.000000e+002 4.500000e+001 -2.000000e+002 4.500000e+001
94625000000 -6.184287e+000 -1.355510e+002 -2.000000e+002 4.500000e+001 -2.000000e+002 4.500000e+001 -2.000000e+002 4.500000e+001
94656250000 -6.010804e+000 -1.577753e+002 -2.000000e+002 4.500000e+001 -2.000000e+002 4.500000e+001 -2.000000e+002 4.500000e+001
94687500000 -5.845489e+000 1.796962e+002 -2.000000e+002 4.500000e+001 -2.000000e+002 4.500000e+001 -2.000000e+002 4.500000e+001
94718750000 -5.736822e+000 1.568779e+002 -2.000000e+002 4.500000e+001 -2.000000e+002 4.500000e+001 -2.000000e+002 4.500000e+001
