!Agilent Technologies,E8363B,MY43030303,A.07.50.37
!Agilent E8363B: A.07.50.37
!Date: Thursday, February 02, 2012 01:55:57
!Correction: S11(Off) 
!S21(Off) 
!S12(Off) 
!S22(Off) 
!S2P File: Measurements: S11, S21, S12, S22:
# Hz S  dB   R 50
90000000000 -2.000000e+002 4.500000e+001 -2.385224e+001 6.540701e+001 -2.000000e+002 4.500000e+001 -2.000000e+002 4.500000e+001
90031250000 -2.000000e+002 4.500000e+001 -2.384164e+001 1.111747e+002 -2.000000e+002 4.500000e+001 -2.000000e+002 4.500000e+001
90062500000 -2.000000e+002 4.500000e+001 -2.399806e+001 1.575112e+002 -2.000000e+002 4.500000e+001 -2.000000e+002 4.500000e+001
90093750000 -2.000000e+002 4.500000e+001 -2.413439e+001 -1.548887e+002 -2.000000e+002 4.500000e+001 -2.000000e+002 4.500000e+001
90125000000 -2.000000e+002 4.500000e+001 -2.427055e+001 -1.074393e+002 -2.000000e+002 4.500000e+001 -2.000000e+002 4.500000e+001
90156250000 -2.000000e+002 4.500000e+001 -2.423433e+001 -6.017822e+001 -2.000000e+002 4.500000e+001 -2.000000e+002 4.500000e+001
90187500000 -2.000000e+002 4.500000e+001 -2.436103e+001 -1.241671e+001 -2.000000e+002 4.500000e+001 -2.000000e+002 4.500000e+001
90218750000 -2.000000e+002 4.500000e+001 -2.446935e+001 3.389859e+001 -2.000000e+002 4.500000e+001 -2.000000e+002 4.500000e+001
90250000000 -2.000000e+002 4.500000e+001 -2.460243e+001 7.957536e+001 -2.000000e+002 4.500000e+001 -2.000000e+002 4.500000e+001
90281250000 -2.000000e+002 4.500000e+001 -2.487880e+001 1.248932e+002 -2.000000e+002 4.500000e+001 -2.000000e+002 4.500000e+001
90312500000 -2.000000e+002 4.500000e+001 -2.500213e+001 1.712625e+002 -2.000000e+002 4.500000e+001 -2.000000e+002 4.500000e+001
90343750000 -2.000000e+002 4.500000e+001 -2.522158e+001 -1.423512e+002 -2.000000e+002 4.500000e+001 -2.000000e+002 4.500000e+001
90375000000 -2.000000e+002 4.500000e+001 -2.552819e+001 -9.363485e+001 -2.000000e+002 4.500000e+001 -2.000000e+002 4.500000e+001
90406250000 -2.000000e+002 4.500000e+001 -2.581128e+001 -4.379026e+001 -2.000000e+002 4.500000e+001 -2.000000e+002 4.500000e+001
90437500000 -2.000000e+002 4.500000e+001 -2.594835e+001 5.670866e+000 -2.000000e+002 4.500000e+001 -2.000000e+002 4.500000e+001
90468750000 -2.000000e+002 4.500000e+001 -2.621927e+001 5.469771e+001 -2.000000e+002 4.500000e+001 -2.000000e+002 4.500000e+001
90500000000 -2.000000e+002 4.500000e+001 -2.625876e+001 1.036558e+002 -2.000000e+002 4.500000e+001 -2.000000e+002 4.500000e+001
90531250000 -2.000000e+002 4.500000e+001 -2.628360e+001 1.512968e+002 -2.000000e+002 4.500000e+001 -2.000000e+002 4.500000e+001
90562500000 -2.000000e+002 4.500000e+001 -2.628751e+001 -1.617274e+002 -2.000000e+002 4.500000e+001 -2.000000e+002 4.500000e+001
90593750000 -2.000000e+002 4.500000e+001 -2.621595e+001 -1.162581e+002 -2.000000e+002 4.500000e+001 -2.000000e+002 4.500000e+001
90625000000 -2.000000e+002 4.500000e+001 -2.618916e+001 -7.009397e+001 -2.000000e+002 4.500000e+001 -2.000000e+002 4.500000e+001
90656250000 -2.000000e+002 4.500000e+001 -2.617815e+001 -2.238655e+001 -2.000000e+002 4.500000e+001 -2.000000e+002 4.500000e+001
90687500000 -2.000000e+002 4.500000e+001 -2.610328e+001 2.671612e+001 -2.000000e+002 4.500000e+001 -2.000000e+002 4.500000e+001
90718750000 -2.000000e+002 4.500000e+001 -2.611154e+001 7.702802e+001 -2.000000e+002 4.500000e+001 -2.000000e+002 4.500000e+001
90750000000 -2.000000e+002 4.500000e+001 -2.600849e+001 1.266510e+002 -2.000000e+002 4.500000e+001 -2.000000e+002 4.500000e+001
90781250000 -2.000000e+002 4.500000e+001 -2.596028e+001 1.765099e+002 -2.000000e+002 4.500000e+001 -2.000000e+002 4.500000e+001
90812500000 -2.000000e+002 4.500000e+001 -2.581253e+001 -1.344798e+002 -2.000000e+002 4.500000e+001 -2.000000e+002 4.500000e+001
90843750000 -2.000000e+002 4.500000e+001 -2.574694e+001 -8.791562e+001 -2.000000e+002 4.500000e+001 -2.000000e+002 4.500000e+001
90875000000 -2.000000e+002 4.500000e+001 -2.562301e+001 -4.212675e+001 -2.000000e+002 4.500000e+001 -2.000000e+002 4.500000e+001
90906250000 -2.000000e+002 4.500000e+001 -2.543478e+001 2.968432e+000 -2.000000e+002 4.500000e+001 -2.000000e+002 4.500000e+001
90937500000 -2.000000e+002 4.500000e+001 -2.532693e+001 4.796347e+001 -2.000000e+002 4.500000e+001 -2.000000e+002 4.500000e+001
90968750000 -2.000000e+002 4.500000e+001 -2.531788e+001 9.410533e+001 -2.000000e+002 4.500000e+001 -2.000000e+002 4.500000e+001
91000000000 -2.000000e+002 4.500000e+001 -2.517832e+001 1.415681e+002 -2.000000e+002 4.500000e+001 -2.000000e+002 4.500000e+001
91031250000 -2.000000e+002 4.500000e+001 -2.538616e+001 -1.707326e+002 -2.000000e+002 4.500000e+001 -2.000000e+002 4.500000e+001
91062500000 -2.000000e+002 4.500000e+001 -2.550528e+001 -1.221784e+002 -2.000000e+002 4.500000e+001 -2.000000e+002 4.500000e+001
91093750000 -2.000000e+002 4.500000e+001 -2.560658e+001 -7.425304e+001 -2.000000e+002 4.500000e+001 -2.000000e+002 4.500000e+001
91125000000 -2.000000e+002 4.500000e+001 -2.586987e+001 -2.680099e+001 -2.000000e+002 4.500000e+001 -2.000000e+002 4.500000e+001
91156250000 -2.000000e+002 4.500000e+001 -2.606809e+001 1.817556e+001 -2.000000e+002 4.500000e+001 -2.000000e+002 4.500000e+001
91187500000 -2.000000e+002 4.500000e+001 -2.627315e+001 6.178923e+001 -2.000000e+002 4.500000e+001 -2.000000e+002 4.500000e+001
91218750000 -2.000000e+002 4.500000e+001 -2.638458e+001 1.048627e+002 -2.000000e+002 4.500000e+001 -2.000000e+002 4.500000e+001
91250000000 -2.000000e+002 4.500000e+001 -2.639390e+001 1.495179e+002 -2.000000e+002 4.500000e+001 -2.000000e+002 4.500000e+001
91281250000 -2.000000e+002 4.500000e+001 -2.661051e+001 -1.647522e+002 -2.000000e+002 4.500000e+001 -2.000000e+002 4.500000e+001
91312500000 -2.000000e+002 4.500000e+001 -2.668890e+001 -1.169563e+002 -2.000000e+002 4.500000e+001 -2.000000e+002 4.500000e+001
91343750000 -2.000000e+002 4.500000e+001 -2.668247e+001 -6.828757e+001 -2.000000e+002 4.500000e+001 -2.000000e+002 4.500000e+001
91375000000 -2.000000e+002 4.500000e+001 -2.676579e+001 -1.910962e+001 -2.000000e+002 4.500000e+001 -2.000000e+002 4.500000e+001
91406250000 -2.000000e+002 4.500000e+001 -2.672967e+001 3.051618e+001 -2.000000e+002 4.500000e+001 -2.000000e+002 4.500000e+001
91437500000 -2.000000e+002 4.500000e+001 -2.666220e+001 7.927593e+001 -2.000000e+002 4.500000e+001 -2.000000e+002 4.500000e+001
91468750000 -2.000000e+002 4.500000e+001 -2.672688e+001 1.262437e+002 -2.000000e+002 4.500000e+001 -2.000000e+002 4.500000e+001
91500000000 -2.000000e+002 4.500000e+001 -2.690548e+001 1.719722e+002 -2.000000e+002 4.500000e+001 -2.000000e+002 4.500000e+001
91531250000 -2.000000e+002 4.500000e+001 -2.680735e+001 -1.412208e+002 -2.000000e+002 4.500000e+001 -2.000000e+002 4.500000e+001
91562500000 -2.000000e+002 4.500000e+001 -2.687259e+001 -9.272096e+001 -2.000000e+002 4.500000e+001 -2.000000e+002 4.500000e+001
91593750000 -2.000000e+002 4.500000e+001 -2.682876e+001 -4.244865e+001 -2.000000e+002 4.500000e+001 -2.000000e+002 4.500000e+001
91625000000 -2.000000e+002 4.500000e+001 -2.684124e+001 8.825077e+000 -2.000000e+002 4.500000e+001 -2.000000e+002 4.500000e+001
91656250000 -2.000000e+002 4.500000e+001 -2.665219e+001 6.142647e+001 -2.000000e+002 4.500000e+001 -2.000000e+002 4.500000e+001
91687500000 -2.000000e+002 4.500000e+001 -2.650843e+001 1.139524e+002 -2.000000e+002 4.500000e+001 -2.000000e+002 4.500000e+001
91718750000 -2.000000e+002 4.500000e+001 -2.629615e+001 1.656924e+002 -2.000000e+002 4.500000e+001 -2.000000e+002 4.500000e+001
91750000000 -2.000000e+002 4.500000e+001 -2.621842e+001 -1.447639e+002 -2.000000e+002 4.500000e+001 -2.000000e+002 4.500000e+001
91781250000 -2.000000e+002 4.500000e+001 -2.601923e+001 -9.886524e+001 -2.000000e+002 4.500000e+001 -2.000000e+002 4.500000e+001
91812500000 -2.000000e+002 4.500000e+001 -2.588684e+001 -5.346906e+001 -2.000000e+002 4.500000e+001 -2.000000e+002 4.500000e+001
91843750000 -2.000000e+002 4.500000e+001 -2.565926e+001 -8.682028e+000 -2.000000e+002 4.500000e+001 -2.000000e+002 4.500000e+001
91875000000 -2.000000e+002 4.500000e+001 -2.559006e+001 3.603240e+001 -2.000000e+002 4.500000e+001 -2.000000e+002 4.500000e+001
91906250000 -2.000000e+002 4.500000e+001 -2.557926e+001 8.236868e+001 -2.000000e+002 4.500000e+001 -2.000000e+002 4.500000e+001
91937500000 -2.000000e+002 4.500000e+001 -2.547483e+001 1.287942e+002 -2.000000e+002 4.500000e+001 -2.000000e+002 4.500000e+001
91968750000 -2.000000e+002 4.500000e+001 -2.547903e+001 1.767157e+002 -2.000000e+002 4.500000e+001 -2.000000e+002 4.500000e+001
92000000000 -2.000000e+002 4.500000e+001 -2.530348e+001 -1.347574e+002 -2.000000e+002 4.500000e+001 -2.000000e+002 4.500000e+001
92031250000 -2.000000e+002 4.500000e+001 -2.524072e+001 -8.622723e+001 -2.000000e+002 4.500000e+001 -2.000000e+002 4.500000e+001
92062500000 -2.000000e+002 4.500000e+001 -2.520965e+001 -4.109587e+001 -2.000000e+002 4.500000e+001 -2.000000e+002 4.500000e+001
92093750000 -2.000000e+002 4.500000e+001 -2.507940e+001 3.000272e+000 -2.000000e+002 4.500000e+001 -2.000000e+002 4.500000e+001
92125000000 -2.000000e+002 4.500000e+001 -2.497974e+001 4.757014e+001 -2.000000e+002 4.500000e+001 -2.000000e+002 4.500000e+001
92156250000 -2.000000e+002 4.500000e+001 -2.490013e+001 9.378565e+001 -2.000000e+002 4.500000e+001 -2.000000e+002 4.500000e+001
92187500000 -2.000000e+002 4.500000e+001 -2.485464e+001 1.402020e+002 -2.000000e+002 4.500000e+001 -2.000000e+002 4.500000e+001
92218750000 -2.000000e+002 4.500000e+001 -2.478925e+001 -1.701991e+002 -2.000000e+002 4.500000e+001 -2.000000e+002 4.500000e+001
92250000000 -2.000000e+002 4.500000e+001 -2.459533e+001 -1.176960e+002 -2.000000e+002 4.500000e+001 -2.000000e+002 4.500000e+001
92281250000 -2.000000e+002 4.500000e+001 -2.443521e+001 -6.372232e+001 -2.000000e+002 4.500000e+001 -2.000000e+002 4.500000e+001
92312500000 -2.000000e+002 4.500000e+001 -2.416405e+001 -9.509491e+000 -2.000000e+002 4.500000e+001 -2.000000e+002 4.500000e+001
92343750000 -2.000000e+002 4.500000e+001 -2.393422e+001 4.411690e+001 -2.000000e+002 4.500000e+001 -2.000000e+002 4.500000e+001
92375000000 -2.000000e+002 4.500000e+001 -2.364322e+001 9.532703e+001 -2.000000e+002 4.500000e+001 -2.000000e+002 4.500000e+001
92406250000 -2.000000e+002 4.500000e+001 -2.327273e+001 1.450052e+002 -2.000000e+002 4.500000e+001 -2.000000e+002 4.500000e+001
92437500000 -2.000000e+002 4.500000e+001 -2.297873e+001 -1.666476e+002 -2.000000e+002 4.500000e+001 -2.000000e+002 4.500000e+001
92468750000 -2.000000e+002 4.500000e+001 -2.266190e+001 -1.185029e+002 -2.000000e+002 4.500000e+001 -2.000000e+002 4.500000e+001
92500000000 -2.000000e+002 4.500000e+001 -2.237105e+001 -7.092057e+001 -2.000000e+002 4.500000e+001 -2.000000e+002 4.500000e+001
92531250000 -2.000000e+002 4.500000e+001 -2.214154e+001 -2.213449e+001 -2.000000e+002 4.500000e+001 -2.000000e+002 4.500000e+001
92562500000 -2.000000e+002 4.500000e+001 -2.193533e+001 2.740972e+001 -2.000000e+002 4.500000e+001 -2.000000e+002 4.500000e+001
92593750000 -2.000000e+002 4.500000e+001 -2.171600e+001 7.731674e+001 -2.000000e+002 4.500000e+001 -2.000000e+002 4.500000e+001
92625000000 -2.000000e+002 4.500000e+001 -2.151570e+001 1.252569e+002 -2.000000e+002 4.500000e+001 -2.000000e+002 4.500000e+001
92656250000 -2.000000e+002 4.500000e+001 -2.134094e+001 1.720329e+002 -2.000000e+002 4.500000e+001 -2.000000e+002 4.500000e+001
92687500000 -2.000000e+002 4.500000e+001 -2.111656e+001 -1.428606e+002 -2.000000e+002 4.500000e+001 -2.000000e+002 4.500000e+001
92718750000 -2.000000e+002 4.500000e+001 -2.097846e+001 -9.916016e+001 -2.000000e+002 4.500000e+001 -2.000000e+002 4.500000e+001
92750000000 -2.000000e+002 4.500000e+001 -2.078630e+001 -5.647261e+001 -2.000000e+002 4.500000e+001 -2.000000e+002 4.500000e+001
92781250000 -2.000000e+002 4.500000e+001 -2.065522e+001 -1.347933e+001 -2.000000e+002 4.500000e+001 -2.000000e+002 4.500000e+001
92812500000 -2.000000e+002 4.500000e+001 -2.051859e+001 3.111912e+001 -2.000000e+002 4.500000e+001 -2.000000e+002 4.500000e+001
92843750000 -2.000000e+002 4.500000e+001 -2.039562e+001 7.727403e+001 -2.000000e+002 4.500000e+001 -2.000000e+002 4.500000e+001
92875000000 -2.000000e+002 4.500000e+001 -2.037087e+001 1.255969e+002 -2.000000e+002 4.500000e+001 -2.000000e+002 4.500000e+001
92906250000 -2.000000e+002 4.500000e+001 -2.034877e+001 1.748339e+002 -2.000000e+002 4.500000e+001 -2.000000e+002 4.500000e+001
92937500000 -2.000000e+002 4.500000e+001 -2.030633e+001 -1.357775e+002 -2.000000e+002 4.500000e+001 -2.000000e+002 4.500000e+001
92968750000 -2.000000e+002 4.500000e+001 -2.028364e+001 -8.675952e+001 -2.000000e+002 4.500000e+001 -2.000000e+002 4.500000e+001
93000000000 -2.000000e+002 4.500000e+001 -2.031564e+001 -3.897098e+001 -2.000000e+002 4.500000e+001 -2.000000e+002 4.500000e+001
93031250000 -2.000000e+002 4.500000e+001 -2.027358e+001 7.674193e+000 -2.000000e+002 4.500000e+001 -2.000000e+002 4.500000e+001
93062500000 -2.000000e+002 4.500000e+001 -2.025336e+001 5.343072e+001 -2.000000e+002 4.500000e+001 -2.000000e+002 4.500000e+001
93093750000 -2.000000e+002 4.500000e+001 -2.022440e+001 9.947261e+001 -2.000000e+002 4.500000e+001 -2.000000e+002 4.500000e+001
93125000000 -2.000000e+002 4.500000e+001 -2.019183e+001 1.469428e+002 -2.000000e+002 4.500000e+001 -2.000000e+002 4.500000e+001
93156250000 -2.000000e+002 4.500000e+001 -2.015052e+001 -1.648229e+002 -2.000000e+002 4.500000e+001 -2.000000e+002 4.500000e+001
93187500000 -2.000000e+002 4.500000e+001 -2.010875e+001 -1.160011e+002 -2.000000e+002 4.500000e+001 -2.000000e+002 4.500000e+001
93218750000 -2.000000e+002 4.500000e+001 -2.008286e+001 -6.699759e+001 -2.000000e+002 4.500000e+001 -2.000000e+002 4.500000e+001
93250000000 -2.000000e+002 4.500000e+001 -2.007687e+001 -1.887976e+001 -2.000000e+002 4.500000e+001 -2.000000e+002 4.500000e+001
93281250000 -2.000000e+002 4.500000e+001 -2.007635e+001 2.765863e+001 -2.000000e+002 4.500000e+001 -2.000000e+002 4.500000e+001
93312500000 -2.000000e+002 4.500000e+001 -2.014243e+001 7.253322e+001 -2.000000e+002 4.500000e+001 -2.000000e+002 4.500000e+001
93343750000 -2.000000e+002 4.500000e+001 -2.023652e+001 1.151005e+002 -2.000000e+002 4.500000e+001 -2.000000e+002 4.500000e+001
93375000000 -2.000000e+002 4.500000e+001 -2.034724e+001 1.569784e+002 -2.000000e+002 4.500000e+001 -2.000000e+002 4.500000e+001
93406250000 -2.000000e+002 4.500000e+001 -2.047202e+001 -1.608111e+002 -2.000000e+002 4.500000e+001 -2.000000e+002 4.500000e+001
93437500000 -2.000000e+002 4.500000e+001 -2.063364e+001 -1.174153e+002 -2.000000e+002 4.500000e+001 -2.000000e+002 4.500000e+001
93468750000 -2.000000e+002 4.500000e+001 -2.083418e+001 -7.362122e+001 -2.000000e+002 4.500000e+001 -2.000000e+002 4.500000e+001
93500000000 -2.000000e+002 4.500000e+001 -2.099571e+001 -2.841710e+001 -2.000000e+002 4.500000e+001 -2.000000e+002 4.500000e+001
93531250000 -2.000000e+002 4.500000e+001 -2.120792e+001 1.789584e+001 -2.000000e+002 4.500000e+001 -2.000000e+002 4.500000e+001
93562500000 -2.000000e+002 4.500000e+001 -2.144164e+001 6.440031e+001 -2.000000e+002 4.500000e+001 -2.000000e+002 4.500000e+001
93593750000 -2.000000e+002 4.500000e+001 -2.168518e+001 1.110898e+002 -2.000000e+002 4.500000e+001 -2.000000e+002 4.500000e+001
93625000000 -2.000000e+002 4.500000e+001 -2.194098e+001 1.566977e+002 -2.000000e+002 4.500000e+001 -2.000000e+002 4.500000e+001
93656250000 -2.000000e+002 4.500000e+001 -2.231044e+001 -1.587847e+002 -2.000000e+002 4.500000e+001 -2.000000e+002 4.500000e+001
93687500000 -2.000000e+002 4.500000e+001 -2.262278e+001 -1.131984e+002 -2.000000e+002 4.500000e+001 -2.000000e+002 4.500000e+001
93718750000 -2.000000e+002 4.500000e+001 -2.299309e+001 -6.636887e+001 -2.000000e+002 4.500000e+001 -2.000000e+002 4.500000e+001
93750000000 -2.000000e+002 4.500000e+001 -2.328589e+001 -1.801445e+001 -2.000000e+002 4.500000e+001 -2.000000e+002 4.500000e+001
93781250000 -2.000000e+002 4.500000e+001 -2.365140e+001 3.143417e+001 -2.000000e+002 4.500000e+001 -2.000000e+002 4.500000e+001
93812500000 -2.000000e+002 4.500000e+001 -2.399388e+001 8.186349e+001 -2.000000e+002 4.500000e+001 -2.000000e+002 4.500000e+001
93843750000 -2.000000e+002 4.500000e+001 -2.420147e+001 1.334836e+002 -2.000000e+002 4.500000e+001 -2.000000e+002 4.500000e+001
93875000000 -2.000000e+002 4.500000e+001 -2.442879e+001 -1.747751e+002 -2.000000e+002 4.500000e+001 -2.000000e+002 4.500000e+001
93906250000 -2.000000e+002 4.500000e+001 -2.459207e+001 -1.251779e+002 -2.000000e+002 4.500000e+001 -2.000000e+002 4.500000e+001
93937500000 -2.000000e+002 4.500000e+001 -2.465931e+001 -7.657677e+001 -2.000000e+002 4.500000e+001 -2.000000e+002 4.500000e+001
93968750000 -2.000000e+002 4.500000e+001 -2.464964e+001 -2.922706e+001 -2.000000e+002 4.500000e+001 -2.000000e+002 4.500000e+001
94000000000 -2.000000e+002 4.500000e+001 -2.469683e+001 1.840012e+001 -2.000000e+002 4.500000e+001 -2.000000e+002 4.500000e+001
94031250000 -2.000000e+002 4.500000e+001 -2.467069e+001 6.561243e+001 -2.000000e+002 4.500000e+001 -2.000000e+002 4.500000e+001
94062500000 -2.000000e+002 4.500000e+001 -2.468436e+001 1.126167e+002 -2.000000e+002 4.500000e+001 -2.000000e+002 4.500000e+001
94093750000 -2.000000e+002 4.500000e+001 -2.457812e+001 1.602915e+002 -2.000000e+002 4.500000e+001 -2.000000e+002 4.500000e+001
94125000000 -2.000000e+002 4.500000e+001 -2.450417e+001 -1.511331e+002 -2.000000e+002 4.500000e+001 -2.000000e+002 4.500000e+001
94156250000 -2.000000e+002 4.500000e+001 -2.436686e+001 -1.023600e+002 -2.000000e+002 4.500000e+001 -2.000000e+002 4.500000e+001
94187500000 -2.000000e+002 4.500000e+001 -2.418272e+001 -5.446092e+001 -2.000000e+002 4.500000e+001 -2.000000e+002 4.500000e+001
94218750000 -2.000000e+002 4.500000e+001 -2.402050e+001 -7.732012e+000 -2.000000e+002 4.500000e+001 -2.000000e+002 4.500000e+001
94250000000 -2.000000e+002 4.500000e+001 -2.378041e+001 3.811216e+001 -2.000000e+002 4.500000e+001 -2.000000e+002 4.500000e+001
94281250000 -2.000000e+002 4.500000e+001 -2.360245e+001 8.449302e+001 -2.000000e+002 4.500000e+001 -2.000000e+002 4.500000e+001
94312500000 -2.000000e+002 4.500000e+001 -2.344016e+001 1.303117e+002 -2.000000e+002 4.500000e+001 -2.000000e+002 4.500000e+001
94343750000 -2.000000e+002 4.500000e+001 -2.331083e+001 1.759069e+002 -2.000000e+002 4.500000e+001 -2.000000e+002 4.500000e+001
94375000000 -2.000000e+002 4.500000e+001 -2.313049e+001 -1.380568e+002 -2.000000e+002 4.500000e+001 -2.000000e+002 4.500000e+001
94406250000 -2.000000e+002 4.500000e+001 -2.316400e+001 -9.093333e+001 -2.000000e+002 4.500000e+001 -2.000000e+002 4.500000e+001
94437500000 -2.000000e+002 4.500000e+001 -2.319975e+001 -4.289919e+001 -2.000000e+002 4.500000e+001 -2.000000e+002 4.500000e+001
94468750000 -2.000000e+002 4.500000e+001 -2.324259e+001 5.491570e+000 -2.000000e+002 4.500000e+001 -2.000000e+002 4.500000e+001
94500000000 -2.000000e+002 4.500000e+001 -2.326241e+001 5.309710e+001 -2.000000e+002 4.500000e+001 -2.000000e+002 4.500000e+001
94531250000 -2.000000e+002 4.500000e+001 -2.339055e+001 9.988186e+001 -2.000000e+002 4.500000e+001 -2.000000e+002 4.500000e+001
94562500000 -2.000000e+002 4.500000e+001 -2.348803e+001 1.474547e+002 -2.000000e+002 4.500000e+001 -2.000000e+002 4.500000e+001
94593750000 -2.000000e+002 4.500000e+001 -2.355004e+001 -1.654527e+002 -2.000000e+002 4.500000e+001 -2.000000e+002 4.500000e+001
94625000000 -2.000000e+002 4.500000e+001 -2.358496e+001 -1.192324e+002 -2.000000e+002 4.500000e+001 -2.000000e+002 4.500000e+001
94656250000 -2.000000e+002 4.500000e+001 -2.367636e+001 -7.297086e+001 -2.000000e+002 4.500000e+001 -2.000000e+002 4.500000e+001
94687500000 -2.000000e+002 4.500000e+001 -2.374891e+001 -2.665348e+001 -2.000000e+002 4.500000e+001 -2.000000e+002 4.500000e+001
94718750000 -2.000000e+002 4.500000e+001 -2.386411e+001 1.987621e+001 -2.000000e+002 4.500000e+001 -2.000000e+002 4.500000e+001
