!Agilent Technologies,E8363B,MY43030303,A.07.50.37
!Agilent E8363B: A.07.50.37
!Date: Thursday, February 02, 2012 04:03:24
!Correction: S11(Off) 
!S21(Off) 
!S12(Off) 
!S22(Off) 
!S2P File: Measurements: S11, S21, S12, S22:
# Hz S  dB   R 50
90000000000 -2.000000e+002 4.500000e+001 -2.822745e+001 5.187892e+001 -2.000000e+002 4.500000e+001 -2.000000e+002 4.500000e+001
90031250000 -2.000000e+002 4.500000e+001 -2.827792e+001 9.794659e+001 -2.000000e+002 4.500000e+001 -2.000000e+002 4.500000e+001
90062500000 -2.000000e+002 4.500000e+001 -2.817935e+001 1.440898e+002 -2.000000e+002 4.500000e+001 -2.000000e+002 4.500000e+001
90093750000 -2.000000e+002 4.500000e+001 -2.806680e+001 -1.695861e+002 -2.000000e+002 4.500000e+001 -2.000000e+002 4.500000e+001
90125000000 -2.000000e+002 4.500000e+001 -2.824521e+001 -1.225972e+002 -2.000000e+002 4.500000e+001 -2.000000e+002 4.500000e+001
90156250000 -2.000000e+002 4.500000e+001 -2.845846e+001 -7.498978e+001 -2.000000e+002 4.500000e+001 -2.000000e+002 4.500000e+001
90187500000 -2.000000e+002 4.500000e+001 -2.856878e+001 -2.729597e+001 -2.000000e+002 4.500000e+001 -2.000000e+002 4.500000e+001
90218750000 -2.000000e+002 4.500000e+001 -2.873668e+001 2.025910e+001 -2.000000e+002 4.500000e+001 -2.000000e+002 4.500000e+001
90250000000 -2.000000e+002 4.500000e+001 -2.878343e+001 6.726265e+001 -2.000000e+002 4.500000e+001 -2.000000e+002 4.500000e+001
90281250000 -2.000000e+002 4.500000e+001 -2.881271e+001 1.142592e+002 -2.000000e+002 4.500000e+001 -2.000000e+002 4.500000e+001
90312500000 -2.000000e+002 4.500000e+001 -2.880185e+001 1.611259e+002 -2.000000e+002 4.500000e+001 -2.000000e+002 4.500000e+001
90343750000 -2.000000e+002 4.500000e+001 -2.880709e+001 -1.517029e+002 -2.000000e+002 4.500000e+001 -2.000000e+002 4.500000e+001
90375000000 -2.000000e+002 4.500000e+001 -2.864867e+001 -1.032235e+002 -2.000000e+002 4.500000e+001 -2.000000e+002 4.500000e+001
90406250000 -2.000000e+002 4.500000e+001 -2.859134e+001 -5.441452e+001 -2.000000e+002 4.500000e+001 -2.000000e+002 4.500000e+001
90437500000 -2.000000e+002 4.500000e+001 -2.862243e+001 -6.706878e+000 -2.000000e+002 4.500000e+001 -2.000000e+002 4.500000e+001
90468750000 -2.000000e+002 4.500000e+001 -2.867468e+001 4.018530e+001 -2.000000e+002 4.500000e+001 -2.000000e+002 4.500000e+001
90500000000 -2.000000e+002 4.500000e+001 -2.882951e+001 8.755338e+001 -2.000000e+002 4.500000e+001 -2.000000e+002 4.500000e+001
90531250000 -2.000000e+002 4.500000e+001 -2.911812e+001 1.331522e+002 -2.000000e+002 4.500000e+001 -2.000000e+002 4.500000e+001
90562500000 -2.000000e+002 4.500000e+001 -2.930310e+001 1.789707e+002 -2.000000e+002 4.500000e+001 -2.000000e+002 4.500000e+001
90593750000 -2.000000e+002 4.500000e+001 -2.956496e+001 -1.344166e+002 -2.000000e+002 4.500000e+001 -2.000000e+002 4.500000e+001
90625000000 -2.000000e+002 4.500000e+001 -2.962640e+001 -8.747776e+001 -2.000000e+002 4.500000e+001 -2.000000e+002 4.500000e+001
90656250000 -2.000000e+002 4.500000e+001 -2.985003e+001 -3.753214e+001 -2.000000e+002 4.500000e+001 -2.000000e+002 4.500000e+001
90687500000 -2.000000e+002 4.500000e+001 -2.968974e+001 1.241080e+001 -2.000000e+002 4.500000e+001 -2.000000e+002 4.500000e+001
90718750000 -2.000000e+002 4.500000e+001 -2.954774e+001 6.483111e+001 -2.000000e+002 4.500000e+001 -2.000000e+002 4.500000e+001
90750000000 -2.000000e+002 4.500000e+001 -2.914882e+001 1.165528e+002 -2.000000e+002 4.500000e+001 -2.000000e+002 4.500000e+001
90781250000 -2.000000e+002 4.500000e+001 -2.887835e+001 1.662228e+002 -2.000000e+002 4.500000e+001 -2.000000e+002 4.500000e+001
90812500000 -2.000000e+002 4.500000e+001 -2.851739e+001 -1.450376e+002 -2.000000e+002 4.500000e+001 -2.000000e+002 4.500000e+001
90843750000 -2.000000e+002 4.500000e+001 -2.802427e+001 -9.773889e+001 -2.000000e+002 4.500000e+001 -2.000000e+002 4.500000e+001
90875000000 -2.000000e+002 4.500000e+001 -2.772658e+001 -5.381586e+001 -2.000000e+002 4.500000e+001 -2.000000e+002 4.500000e+001
90906250000 -2.000000e+002 4.500000e+001 -2.748497e+001 -1.042286e+001 -2.000000e+002 4.500000e+001 -2.000000e+002 4.500000e+001
90937500000 -2.000000e+002 4.500000e+001 -2.723957e+001 3.419705e+001 -2.000000e+002 4.500000e+001 -2.000000e+002 4.500000e+001
90968750000 -2.000000e+002 4.500000e+001 -2.721229e+001 8.044320e+001 -2.000000e+002 4.500000e+001 -2.000000e+002 4.500000e+001
91000000000 -2.000000e+002 4.500000e+001 -2.708283e+001 1.272890e+002 -2.000000e+002 4.500000e+001 -2.000000e+002 4.500000e+001
91031250000 -2.000000e+002 4.500000e+001 -2.707438e+001 1.755524e+002 -2.000000e+002 4.500000e+001 -2.000000e+002 4.500000e+001
91062500000 -2.000000e+002 4.500000e+001 -2.695847e+001 -1.355957e+002 -2.000000e+002 4.500000e+001 -2.000000e+002 4.500000e+001
91093750000 -2.000000e+002 4.500000e+001 -2.691962e+001 -8.749661e+001 -2.000000e+002 4.500000e+001 -2.000000e+002 4.500000e+001
91125000000 -2.000000e+002 4.500000e+001 -2.674941e+001 -4.072502e+001 -2.000000e+002 4.500000e+001 -2.000000e+002 4.500000e+001
91156250000 -2.000000e+002 4.500000e+001 -2.666195e+001 2.151563e+000 -2.000000e+002 4.500000e+001 -2.000000e+002 4.500000e+001
91187500000 -2.000000e+002 4.500000e+001 -2.653264e+001 4.450560e+001 -2.000000e+002 4.500000e+001 -2.000000e+002 4.500000e+001
91218750000 -2.000000e+002 4.500000e+001 -2.638158e+001 8.440829e+001 -2.000000e+002 4.500000e+001 -2.000000e+002 4.500000e+001
91250000000 -2.000000e+002 4.500000e+001 -2.641036e+001 1.267126e+002 -2.000000e+002 4.500000e+001 -2.000000e+002 4.500000e+001
91281250000 -2.000000e+002 4.500000e+001 -2.648545e+001 1.695344e+002 -2.000000e+002 4.500000e+001 -2.000000e+002 4.500000e+001
91312500000 -2.000000e+002 4.500000e+001 -2.678658e+001 -1.464721e+002 -2.000000e+002 4.500000e+001 -2.000000e+002 4.500000e+001
91343750000 -2.000000e+002 4.500000e+001 -2.700710e+001 -1.002613e+002 -2.000000e+002 4.500000e+001 -2.000000e+002 4.500000e+001
91375000000 -2.000000e+002 4.500000e+001 -2.724630e+001 -5.248097e+001 -2.000000e+002 4.500000e+001 -2.000000e+002 4.500000e+001
91406250000 -2.000000e+002 4.500000e+001 -2.759771e+001 -4.370905e+000 -2.000000e+002 4.500000e+001 -2.000000e+002 4.500000e+001
91437500000 -2.000000e+002 4.500000e+001 -2.784982e+001 4.375076e+001 -2.000000e+002 4.500000e+001 -2.000000e+002 4.500000e+001
91468750000 -2.000000e+002 4.500000e+001 -2.811205e+001 9.047063e+001 -2.000000e+002 4.500000e+001 -2.000000e+002 4.500000e+001
91500000000 -2.000000e+002 4.500000e+001 -2.837245e+001 1.369568e+002 -2.000000e+002 4.500000e+001 -2.000000e+002 4.500000e+001
91531250000 -2.000000e+002 4.500000e+001 -2.839536e+001 -1.757481e+002 -2.000000e+002 4.500000e+001 -2.000000e+002 4.500000e+001
91562500000 -2.000000e+002 4.500000e+001 -2.825166e+001 -1.275431e+002 -2.000000e+002 4.500000e+001 -2.000000e+002 4.500000e+001
91593750000 -2.000000e+002 4.500000e+001 -2.819476e+001 -7.806660e+001 -2.000000e+002 4.500000e+001 -2.000000e+002 4.500000e+001
91625000000 -2.000000e+002 4.500000e+001 -2.804907e+001 -2.763158e+001 -2.000000e+002 4.500000e+001 -2.000000e+002 4.500000e+001
91656250000 -2.000000e+002 4.500000e+001 -2.782922e+001 2.260015e+001 -2.000000e+002 4.500000e+001 -2.000000e+002 4.500000e+001
91687500000 -2.000000e+002 4.500000e+001 -2.780810e+001 7.320163e+001 -2.000000e+002 4.500000e+001 -2.000000e+002 4.500000e+001
91718750000 -2.000000e+002 4.500000e+001 -2.781802e+001 1.230264e+002 -2.000000e+002 4.500000e+001 -2.000000e+002 4.500000e+001
91750000000 -2.000000e+002 4.500000e+001 -2.783585e+001 1.713124e+002 -2.000000e+002 4.500000e+001 -2.000000e+002 4.500000e+001
91781250000 -2.000000e+002 4.500000e+001 -2.803371e+001 -1.437056e+002 -2.000000e+002 4.500000e+001 -2.000000e+002 4.500000e+001
91812500000 -2.000000e+002 4.500000e+001 -2.808799e+001 -9.945400e+001 -2.000000e+002 4.500000e+001 -2.000000e+002 4.500000e+001
91843750000 -2.000000e+002 4.500000e+001 -2.815497e+001 -5.409509e+001 -2.000000e+002 4.500000e+001 -2.000000e+002 4.500000e+001
91875000000 -2.000000e+002 4.500000e+001 -2.820264e+001 -8.780861e+000 -2.000000e+002 4.500000e+001 -2.000000e+002 4.500000e+001
91906250000 -2.000000e+002 4.500000e+001 -2.818033e+001 3.714919e+001 -2.000000e+002 4.500000e+001 -2.000000e+002 4.500000e+001
91937500000 -2.000000e+002 4.500000e+001 -2.799872e+001 8.433064e+001 -2.000000e+002 4.500000e+001 -2.000000e+002 4.500000e+001
91968750000 -2.000000e+002 4.500000e+001 -2.794553e+001 1.325132e+002 -2.000000e+002 4.500000e+001 -2.000000e+002 4.500000e+001
92000000000 -2.000000e+002 4.500000e+001 -2.772560e+001 -1.798578e+002 -2.000000e+002 4.500000e+001 -2.000000e+002 4.500000e+001
92031250000 -2.000000e+002 4.500000e+001 -2.765044e+001 -1.339238e+002 -2.000000e+002 4.500000e+001 -2.000000e+002 4.500000e+001
92062500000 -2.000000e+002 4.500000e+001 -2.735629e+001 -9.139832e+001 -2.000000e+002 4.500000e+001 -2.000000e+002 4.500000e+001
92093750000 -2.000000e+002 4.500000e+001 -2.738887e+001 -4.928016e+001 -2.000000e+002 4.500000e+001 -2.000000e+002 4.500000e+001
92125000000 -2.000000e+002 4.500000e+001 -2.747080e+001 -7.984812e+000 -2.000000e+002 4.500000e+001 -2.000000e+002 4.500000e+001
92156250000 -2.000000e+002 4.500000e+001 -2.763808e+001 3.478969e+001 -2.000000e+002 4.500000e+001 -2.000000e+002 4.500000e+001
92187500000 -2.000000e+002 4.500000e+001 -2.800226e+001 7.889894e+001 -2.000000e+002 4.500000e+001 -2.000000e+002 4.500000e+001
92218750000 -2.000000e+002 4.500000e+001 -2.849140e+001 1.261829e+002 -2.000000e+002 4.500000e+001 -2.000000e+002 4.500000e+001
92250000000 -2.000000e+002 4.500000e+001 -2.892468e+001 1.767916e+002 -2.000000e+002 4.500000e+001 -2.000000e+002 4.500000e+001
92281250000 -2.000000e+002 4.500000e+001 -2.932481e+001 -1.294790e+002 -2.000000e+002 4.500000e+001 -2.000000e+002 4.500000e+001
92312500000 -2.000000e+002 4.500000e+001 -2.968209e+001 -7.539937e+001 -2.000000e+002 4.500000e+001 -2.000000e+002 4.500000e+001
92343750000 -2.000000e+002 4.500000e+001 -2.987117e+001 -2.102042e+001 -2.000000e+002 4.500000e+001 -2.000000e+002 4.500000e+001
92375000000 -2.000000e+002 4.500000e+001 -3.005453e+001 3.115172e+001 -2.000000e+002 4.500000e+001 -2.000000e+002 4.500000e+001
92406250000 -2.000000e+002 4.500000e+001 -3.012765e+001 8.080128e+001 -2.000000e+002 4.500000e+001 -2.000000e+002 4.500000e+001
92437500000 -2.000000e+002 4.500000e+001 -3.010443e+001 1.315227e+002 -2.000000e+002 4.500000e+001 -2.000000e+002 4.500000e+001
92468750000 -2.000000e+002 4.500000e+001 -3.005469e+001 1.799895e+002 -2.000000e+002 4.500000e+001 -2.000000e+002 4.500000e+001
92500000000 -2.000000e+002 4.500000e+001 -3.015914e+001 -1.318339e+002 -2.000000e+002 4.500000e+001 -2.000000e+002 4.500000e+001
92531250000 -2.000000e+002 4.500000e+001 -3.031952e+001 -8.182885e+001 -2.000000e+002 4.500000e+001 -2.000000e+002 4.500000e+001
92562500000 -2.000000e+002 4.500000e+001 -3.037781e+001 -3.092668e+001 -2.000000e+002 4.500000e+001 -2.000000e+002 4.500000e+001
92593750000 -2.000000e+002 4.500000e+001 -3.049037e+001 1.865501e+001 -2.000000e+002 4.500000e+001 -2.000000e+002 4.500000e+001
92625000000 -2.000000e+002 4.500000e+001 -3.065219e+001 6.790860e+001 -2.000000e+002 4.500000e+001 -2.000000e+002 4.500000e+001
92656250000 -2.000000e+002 4.500000e+001 -3.082529e+001 1.166496e+002 -2.000000e+002 4.500000e+001 -2.000000e+002 4.500000e+001
92687500000 -2.000000e+002 4.500000e+001 -3.090278e+001 1.633348e+002 -2.000000e+002 4.500000e+001 -2.000000e+002 4.500000e+001
92718750000 -2.000000e+002 4.500000e+001 -3.101684e+001 -1.505692e+002 -2.000000e+002 4.500000e+001 -2.000000e+002 4.500000e+001
92750000000 -2.000000e+002 4.500000e+001 -3.117448e+001 -1.056141e+002 -2.000000e+002 4.500000e+001 -2.000000e+002 4.500000e+001
92781250000 -2.000000e+002 4.500000e+001 -3.108337e+001 -5.938906e+001 -2.000000e+002 4.500000e+001 -2.000000e+002 4.500000e+001
92812500000 -2.000000e+002 4.500000e+001 -3.113521e+001 -1.305113e+001 -2.000000e+002 4.500000e+001 -2.000000e+002 4.500000e+001
92843750000 -2.000000e+002 4.500000e+001 -3.104314e+001 3.574876e+001 -2.000000e+002 4.500000e+001 -2.000000e+002 4.500000e+001
92875000000 -2.000000e+002 4.500000e+001 -3.088175e+001 8.537704e+001 -2.000000e+002 4.500000e+001 -2.000000e+002 4.500000e+001
92906250000 -2.000000e+002 4.500000e+001 -3.077901e+001 1.352297e+002 -2.000000e+002 4.500000e+001 -2.000000e+002 4.500000e+001
92937500000 -2.000000e+002 4.500000e+001 -3.084798e+001 -1.738120e+002 -2.000000e+002 4.500000e+001 -2.000000e+002 4.500000e+001
92968750000 -2.000000e+002 4.500000e+001 -3.083085e+001 -1.246452e+002 -2.000000e+002 4.500000e+001 -2.000000e+002 4.500000e+001
93000000000 -2.000000e+002 4.500000e+001 -3.094854e+001 -7.718288e+001 -2.000000e+002 4.500000e+001 -2.000000e+002 4.500000e+001
93031250000 -2.000000e+002 4.500000e+001 -3.126275e+001 -3.068997e+001 -2.000000e+002 4.500000e+001 -2.000000e+002 4.500000e+001
93062500000 -2.000000e+002 4.500000e+001 -3.162576e+001 1.605211e+001 -2.000000e+002 4.500000e+001 -2.000000e+002 4.500000e+001
93093750000 -2.000000e+002 4.500000e+001 -3.190410e+001 6.408127e+001 -2.000000e+002 4.500000e+001 -2.000000e+002 4.500000e+001
93125000000 -2.000000e+002 4.500000e+001 -3.220735e+001 1.124239e+002 -2.000000e+002 4.500000e+001 -2.000000e+002 4.500000e+001
93156250000 -2.000000e+002 4.500000e+001 -3.252451e+001 1.639766e+002 -2.000000e+002 4.500000e+001 -2.000000e+002 4.500000e+001
93187500000 -2.000000e+002 4.500000e+001 -3.260145e+001 -1.435167e+002 -2.000000e+002 4.500000e+001 -2.000000e+002 4.500000e+001
93218750000 -2.000000e+002 4.500000e+001 -3.267251e+001 -9.167334e+001 -2.000000e+002 4.500000e+001 -2.000000e+002 4.500000e+001
93250000000 -2.000000e+002 4.500000e+001 -3.262701e+001 -3.996862e+001 -2.000000e+002 4.500000e+001 -2.000000e+002 4.500000e+001
93281250000 -2.000000e+002 4.500000e+001 -3.248795e+001 1.010686e+001 -2.000000e+002 4.500000e+001 -2.000000e+002 4.500000e+001
93312500000 -2.000000e+002 4.500000e+001 -3.241172e+001 5.688679e+001 -2.000000e+002 4.500000e+001 -2.000000e+002 4.500000e+001
93343750000 -2.000000e+002 4.500000e+001 -3.222633e+001 1.017476e+002 -2.000000e+002 4.500000e+001 -2.000000e+002 4.500000e+001
93375000000 -2.000000e+002 4.500000e+001 -3.211565e+001 1.446133e+002 -2.000000e+002 4.500000e+001 -2.000000e+002 4.500000e+001
93406250000 -2.000000e+002 4.500000e+001 -3.220391e+001 -1.722436e+002 -2.000000e+002 4.500000e+001 -2.000000e+002 4.500000e+001
93437500000 -2.000000e+002 4.500000e+001 -3.228993e+001 -1.288725e+002 -2.000000e+002 4.500000e+001 -2.000000e+002 4.500000e+001
93468750000 -2.000000e+002 4.500000e+001 -3.260305e+001 -8.339907e+001 -2.000000e+002 4.500000e+001 -2.000000e+002 4.500000e+001
93500000000 -2.000000e+002 4.500000e+001 -3.272938e+001 -3.721915e+001 -2.000000e+002 4.500000e+001 -2.000000e+002 4.500000e+001
93531250000 -2.000000e+002 4.500000e+001 -3.310991e+001 1.118596e+001 -2.000000e+002 4.500000e+001 -2.000000e+002 4.500000e+001
93562500000 -2.000000e+002 4.500000e+001 -3.326330e+001 6.000069e+001 -2.000000e+002 4.500000e+001 -2.000000e+002 4.500000e+001
93593750000 -2.000000e+002 4.500000e+001 -3.345470e+001 1.101359e+002 -2.000000e+002 4.500000e+001 -2.000000e+002 4.500000e+001
93625000000 -2.000000e+002 4.500000e+001 -3.357822e+001 1.578817e+002 -2.000000e+002 4.500000e+001 -2.000000e+002 4.500000e+001
93656250000 -2.000000e+002 4.500000e+001 -3.357832e+001 -1.544258e+002 -2.000000e+002 4.500000e+001 -2.000000e+002 4.500000e+001
93687500000 -2.000000e+002 4.500000e+001 -3.350612e+001 -1.061559e+002 -2.000000e+002 4.500000e+001 -2.000000e+002 4.500000e+001
93718750000 -2.000000e+002 4.500000e+001 -3.337147e+001 -5.747028e+001 -2.000000e+002 4.500000e+001 -2.000000e+002 4.500000e+001
93750000000 -2.000000e+002 4.500000e+001 -3.301747e+001 -9.146849e+000 -2.000000e+002 4.500000e+001 -2.000000e+002 4.500000e+001
93781250000 -2.000000e+002 4.500000e+001 -3.288703e+001 3.986697e+001 -2.000000e+002 4.500000e+001 -2.000000e+002 4.500000e+001
93812500000 -2.000000e+002 4.500000e+001 -3.267887e+001 8.877273e+001 -2.000000e+002 4.500000e+001 -2.000000e+002 4.500000e+001
93843750000 -2.000000e+002 4.500000e+001 -3.245229e+001 1.380250e+002 -2.000000e+002 4.500000e+001 -2.000000e+002 4.500000e+001
93875000000 -2.000000e+002 4.500000e+001 -3.255956e+001 -1.740778e+002 -2.000000e+002 4.500000e+001 -2.000000e+002 4.500000e+001
93906250000 -2.000000e+002 4.500000e+001 -3.244283e+001 -1.279747e+002 -2.000000e+002 4.500000e+001 -2.000000e+002 4.500000e+001
93937500000 -2.000000e+002 4.500000e+001 -3.267237e+001 -8.367767e+001 -2.000000e+002 4.500000e+001 -2.000000e+002 4.500000e+001
93968750000 -2.000000e+002 4.500000e+001 -3.307509e+001 -3.744430e+001 -2.000000e+002 4.500000e+001 -2.000000e+002 4.500000e+001
94000000000 -2.000000e+002 4.500000e+001 -3.323947e+001 8.797908e+000 -2.000000e+002 4.500000e+001 -2.000000e+002 4.500000e+001
94031250000 -2.000000e+002 4.500000e+001 -3.367612e+001 5.507000e+001 -2.000000e+002 4.500000e+001 -2.000000e+002 4.500000e+001
94062500000 -2.000000e+002 4.500000e+001 -3.387920e+001 1.006123e+002 -2.000000e+002 4.500000e+001 -2.000000e+002 4.500000e+001
94093750000 -2.000000e+002 4.500000e+001 -3.417985e+001 1.490855e+002 -2.000000e+002 4.500000e+001 -2.000000e+002 4.500000e+001
94125000000 -2.000000e+002 4.500000e+001 -3.434986e+001 -1.613993e+002 -2.000000e+002 4.500000e+001 -2.000000e+002 4.500000e+001
94156250000 -2.000000e+002 4.500000e+001 -3.442794e+001 -1.123136e+002 -2.000000e+002 4.500000e+001 -2.000000e+002 4.500000e+001
94187500000 -2.000000e+002 4.500000e+001 -3.471310e+001 -6.478429e+001 -2.000000e+002 4.500000e+001 -2.000000e+002 4.500000e+001
94218750000 -2.000000e+002 4.500000e+001 -3.453825e+001 -1.744470e+001 -2.000000e+002 4.500000e+001 -2.000000e+002 4.500000e+001
94250000000 -2.000000e+002 4.500000e+001 -3.450716e+001 2.950023e+001 -2.000000e+002 4.500000e+001 -2.000000e+002 4.500000e+001
94281250000 -2.000000e+002 4.500000e+001 -3.463650e+001 7.760706e+001 -2.000000e+002 4.500000e+001 -2.000000e+002 4.500000e+001
94312500000 -2.000000e+002 4.500000e+001 -3.475526e+001 1.232528e+002 -2.000000e+002 4.500000e+001 -2.000000e+002 4.500000e+001
94343750000 -2.000000e+002 4.500000e+001 -3.512389e+001 1.706163e+002 -2.000000e+002 4.500000e+001 -2.000000e+002 4.500000e+001
94375000000 -2.000000e+002 4.500000e+001 -3.516525e+001 -1.410488e+002 -2.000000e+002 4.500000e+001 -2.000000e+002 4.500000e+001
94406250000 -2.000000e+002 4.500000e+001 -3.537076e+001 -9.195365e+001 -2.000000e+002 4.500000e+001 -2.000000e+002 4.500000e+001
94437500000 -2.000000e+002 4.500000e+001 -3.581012e+001 -4.097927e+001 -2.000000e+002 4.500000e+001 -2.000000e+002 4.500000e+001
94468750000 -2.000000e+002 4.500000e+001 -3.594148e+001 1.201544e+001 -2.000000e+002 4.500000e+001 -2.000000e+002 4.500000e+001
94500000000 -2.000000e+002 4.500000e+001 -3.602309e+001 6.152568e+001 -2.000000e+002 4.500000e+001 -2.000000e+002 4.500000e+001
94531250000 -2.000000e+002 4.500000e+001 -3.589641e+001 1.119739e+002 -2.000000e+002 4.500000e+001 -2.000000e+002 4.500000e+001
94562500000 -2.000000e+002 4.500000e+001 -3.584317e+001 1.624055e+002 -2.000000e+002 4.500000e+001 -2.000000e+002 4.500000e+001
94593750000 -2.000000e+002 4.500000e+001 -3.585006e+001 -1.489578e+002 -2.000000e+002 4.500000e+001 -2.000000e+002 4.500000e+001
94625000000 -2.000000e+002 4.500000e+001 -3.601120e+001 -9.992663e+001 -2.000000e+002 4.500000e+001 -2.000000e+002 4.500000e+001
94656250000 -2.000000e+002 4.500000e+001 -3.589853e+001 -5.053909e+001 -2.000000e+002 4.500000e+001 -2.000000e+002 4.500000e+001
94687500000 -2.000000e+002 4.500000e+001 -3.556104e+001 -1.736453e+000 -2.000000e+002 4.500000e+001 -2.000000e+002 4.500000e+001
94718750000 -2.000000e+002 4.500000e+001 -3.547908e+001 4.695733e+001 -2.000000e+002 4.500000e+001 -2.000000e+002 4.500000e+001
